Freq.	V(vout)/V(vin)	V(vin)/Ix(x1:VIN)
1.00000000000000e+01	(5.69273082211318e+01dB,5.20658038579773e+01Ḟ)	(8.79474671925703e+01dB,-3.94741671587123e+01Ḟ)
1.05925372517729e+01	(5.71434526825289e+01dB,4.97689002410313e+01Ḟ)	(8.77525750692049e+01dB,-3.78640637849822e+01Ḟ)
1.12201845430196e+01	(5.73438596725480e+01dB,4.75303602373587e+01Ḟ)	(8.75711971193525e+01dB,-3.62769001031176e+01Ḟ)
1.18850222743702e+01	(5.75291752016009e+01dB,4.53530902445460e+01Ḟ)	(8.74029116560339e+01dB,-3.47171283656275e+01Ḟ)
1.25892541179417e+01	(5.77000870896303e+01dB,4.32396170544589e+01Ḟ)	(8.72472342026551e+01dB,-3.31887996921521e+01Ḟ)
1.33352143216332e+01	(5.78573159217034e+01dB,4.11920569303966e+01Ḟ)	(8.71036281674843e+01dB,-3.16955253534149e+01Ḟ)
1.41253754462275e+01	(5.80016055344420e+01dB,3.92120968382743e+01Ḟ)	(8.69715159276824e+01dB,-3.02404517800172e+01Ḟ)
1.49623565609443e+01	(5.81337134557615e+01dB,3.73009875772392e+01Ḟ)	(8.68502898896604e+01dB,-2.88262488497656e+01Ḟ)
1.58489319246111e+01	(5.82544016685556e+01dB,3.54595479627840e+01Ḟ)	(8.67393231456502e+01dB,-2.74551104147731e+01Ḟ)
1.67880401812256e+01	(5.83644279986613e+01dB,3.36881787549074e+01Ḟ)	(8.66379794159611e+01dB,-2.61287655867186e+01Ḟ)
1.77827941003892e+01	(5.84645383627198e+01dB,3.19868847163766e+01Ḟ)	(8.65456220440741e+01dB,-2.48484990161658e+01Ḟ)
1.88364908948980e+01	(5.85554600263119e+01dB,3.03553030474194e+01Ḟ)	(8.64616218903155e+01dB,-2.36151782719058e+01Ḟ)
1.99526231496888e+01	(5.86378959534304e+01dB,2.87927364297614e+01Ḟ)	(8.63853640431301e+01dB,-2.24292864295934e+01Ḟ)
2.11348903983665e+01	(5.87125202699400e+01dB,2.72981889994026e+01Ḟ)	(8.63162533308187e+01dB,-2.12909580875734e+01Ḟ)
2.23872113856834e+01	(5.87799748127926e+01dB,2.58704037381237e+01Ḟ)	(8.62537186686205e+01dB,-2.02000172114787e+01Ḟ)
2.37137370566166e+01	(5.88408666849751e+01dB,2.45079000048799e+01Ḟ)	(8.61972163154051e+01dB,-1.91560154385879e+01Ḟ)
2.51188643150958e+01	(5.88957667328377e+01dB,2.32090101421207e+01Ḟ)	(8.61462321411542e+01dB,-1.81582697223686e+01Ḟ)
2.66072505979881e+01	(5.89452088222581e+01dB,2.19719143531728e+01Ḟ)	(8.61002830225886e+01dB,-1.72058984463112e+01Ḟ)
2.81838293126445e+01	(5.89896898005712e+01dB,2.07946732565906e+01Ḟ)	(8.60589174910478e+01dB,-1.62978553693414e+01Ḟ)
2.98538261891796e+01	(5.90296700257318e+01dB,1.96752577285557e+01Ḟ)	(8.60217157562203e+01dB,-1.54329609731100e+01Ḟ)
3.16227766016838e+01	(5.90655743469135e+01dB,1.86115758166349e+01Ḟ)	(8.59882892236191e+01dB,-1.46099309586139e+01Ḟ)
3.34965439157828e+01	(5.90977934330272e+01dB,1.76014966458446e+01Ḟ)	(8.59582796141764e+01dB,-1.38274017850351e+01Ḟ)
3.54813389233575e+01	(5.91266853583513e+01dB,1.66428713464008e+01Ḟ)	(8.59313577827937e+01dB,-1.30839532577448e+01Ḟ)
3.75837404288444e+01	(5.91525773644708e+01dB,1.57335511134407e+01Ḟ)	(8.59072223201382e+01dB,-1.23781282580588e+01Ḟ)
3.98107170553497e+01	(5.91757677308492e+01dB,1.48714025695642e+01Ḟ)	(8.58855980093491e+01dB,-1.17084497681637e+01Ḟ)
4.21696503428582e+01	(5.91965276958926e+01dB,1.40543206354071e+01Ḟ)	(8.58662341971906e+01dB,-1.10734353845812e+01Ḟ)
4.46683592150963e+01	(5.92151033853449e+01dB,1.32802391336054e+01Ḟ)	(8.58489031280749e+01dB,-1.04716095365272e+01Ḟ)
4.73151258961481e+01	(5.92317177137395e+01dB,1.25471393593972e+01Ḟ)	(8.58333982793088e+01dB,-9.90151363549021e+00Ḟ)
5.01187233627272e+01	(5.92465722289643e+01dB,1.18530568508008e+01Ḟ)	(8.58195327272370e+01dB,-9.36171438224353e+00Ḟ)
5.30884444230989e+01	(5.92598488803695e+01dB,1.11960865821707e+01Ḟ)	(8.58071375664913e+01dB,-8.85081045030549e+00Ḟ)
5.62341325190349e+01	(5.92717117021197e+01dB,1.05743867873850e+01Ḟ)	(8.57960603982277e+01dB,-8.36743775286936e+00Ḟ)
5.95662143529011e+01	(5.92823083939045e+01dB,9.98618161184753e+00Ḟ)	(8.57861638982223e+01dB,-7.91027348500886e+00Ḟ)
6.30957344480193e+01	(5.92917718032745e+01dB,9.42976276404043e+00Ḟ)	(8.57773244713446e+01dB,-7.47803911638105e+00Ḟ)
6.68343917568615e+01	(5.93002213006135e+01dB,8.90349032881198e+00Ḟ)	(8.57694309958343e+01dB,-7.06950249212260e+00Ḟ)
7.07945784384138e+01	(5.93077640520935e+01dB,8.40579288013047e+00Ḟ)	(8.57623836580692e+01dB,-6.68347918261271e+00Ḟ)
7.49894209332456e+01	(5.93144961941381e+01dB,7.93516701681723e+00Ḟ)	(8.57560928766743e+01dB,-6.31883320618517e+00Ḟ)
7.94328234724282e+01	(5.93205039052050e+01dB,7.49017643155243e+00Ḟ)	(8.57504783133961e+01dB,-5.97447723338317e+00Ḟ)
8.41395141645195e+01	(5.93258643920518e+01dB,7.06945060169741e+00Ḟ)	(8.57454679670364e+01dB,-5.64937236719587e+00Ḟ)
8.91250938133746e+01	(5.93306467809732e+01dB,6.67168318678341e+00Ḟ)	(8.57409973462041e+01dB,-5.34252758062049e+00Ḟ)
9.44060876285924e+01	(5.93349129365337e+01dB,6.29563019526349e+00Ḟ)	(8.57370087160897e+01dB,-5.05299888143002e+00Ḟ)
1.00000000000000e+02	(5.93387181977274e+01dB,5.94010798324435e+00Ḟ)	(8.57334504143814e+01dB,-4.77988826354328e+00Ḟ)
1.05925372517729e+02	(5.93421120458331e+01dB,5.60399113059788e+00Ḟ)	(8.57302762312566e+01dB,-4.52234249545220e+00Ḟ)
1.12201845430196e+02	(5.93451387103853e+01dB,5.28621023527260e+00Ḟ)	(8.57274448485272e+01dB,-4.27955178813039e+00Ḟ)
1.18850222743702e+02	(5.93478377125129e+01dB,4.98574966051745e+00Ḟ)	(8.57249193331351e+01dB,-4.05074837794321e+00Ḟ)
1.25892541179417e+02	(5.93502443558627e+01dB,4.70164526121874e+00Ḟ)	(8.57226666803878e+01dB,-3.83520505416270e+00Ḟ)
1.33352143216332e+02	(5.93523901705024e+01dB,4.43298211215947e+00Ḟ)	(8.57206574025511e+01dB,-3.63223365554768e+00Ḟ)
1.41253754462275e+02	(5.93543033074525e+01dB,4.17889225713289e+00Ḟ)	(8.57188651587446e+01dB,-3.44118355602084e+00Ḟ)
1.49623565609443e+02	(5.93560088956174e+01dB,3.93855249201165e+00Ḟ)	(8.57172664222764e+01dB,-3.26144015584199e+00Ḟ)
1.58489319246111e+02	(5.93575293632870e+01dB,3.71118219310972e+00Ḟ)	(8.57158401818819e+01dB,-3.09242339148459e+00Ḟ)
1.67880401812256e+02	(5.93588847247652e+01dB,3.49604120047326e+00Ḟ)	(8.57145676736086e+01dB,-2.93358627469900e+00Ḟ)
1.77827941003892e+02	(5.93600928348792e+01dB,3.29242776180262e+00Ḟ)	(8.57134321403670e+01dB,-2.78441346906706e+00Ḟ)
1.88364908948980e+02	(5.93611696225309e+01dB,3.09967654082900e+00Ḟ)	(8.57124186163094e+01dB,-2.64441991058434e+00Ḟ)
1.99526231496888e+02	(5.93621292945782e+01dB,2.91715669482516e+00Ḟ)	(8.57115137336639e+01dB,-2.51314947697441e+00Ḟ)
2.11348903983665e+02	(5.93629845207878e+01dB,2.74427002146036e+00Ḟ)	(8.57107055496233e+01dB,-2.39017370949521e+00Ḟ)
2.23872113856834e+02	(5.93637465974728e+01dB,2.58044917705662e+00Ḟ)	(8.57099833912946e+01dB,-2.27509058964196e+00Ḟ)
2.37137370566166e+02	(5.93644255962847e+01dB,2.42515596487146e+00Ḟ)	(8.57093377167791e+01dB,-2.16752337254441e+00Ḟ)
2.51188643150958e+02	(5.93650304948291e+01dB,2.27787969392241e+00Ḟ)	(8.57087599907112e+01dB,-2.06711947792046e+00Ḟ)
2.66072505979881e+02	(5.93655692937461e+01dB,2.13813560637629e+00Ḟ)	(8.57082425727337e+01dB,-1.97354943904107e+00Ḟ)
2.81838293126446e+02	(5.93660491219136e+01dB,2.00546337185824e+00Ḟ)	(8.57077786174548e+01dB,-1.88650590971443e+00Ḟ)
2.98538261891796e+02	(5.93664763304639e+01dB,1.87942564682326e+00Ḟ)	(8.57073619847122e+01dB,-1.80570272884152e+00Ḟ)
3.16227766016838e+02	(5.93668565747301e+01dB,1.75960669685503e+00Ḟ)	(8.57069871589557e+01dB,-1.73087404190811e+00Ḟ)
3.34965439157828e+02	(5.93671948906297e+01dB,1.64561107891450e+00Ḟ)	(8.57066491767499e+01dB,-1.66177347862778e+00Ḟ)
3.54813389233576e+02	(5.93674957585953e+01dB,1.53706238174227e+00Ḟ)	(8.57063435614513e+01dB,-1.59817338562142e+00Ḟ)
3.75837404288444e+02	(5.93677631648653e+01dB,1.43360202081473e+00Ḟ)	(8.57060662642418e+01dB,-1.53986411323720e+00Ḟ)
3.98107170553497e+02	(5.93680006525257e+01dB,1.33488808607918e+00Ḟ)	(8.57058136107482e+01dB,-1.48665335514265e+00Ḟ)
4.21696503428582e+02	(5.93682113687568e+01dB,1.24059423901090e+00Ḟ)	(8.57055822525729e+01dB,-1.43836553970909e+00Ḟ)
4.46683592150963e+02	(5.93683981060755e+01dB,1.15040865650524e+00Ḟ)	(8.57053691230646e+01dB,-1.39484127196332e+00Ḟ)
4.73151258961481e+02	(5.93685633407524e+01dB,1.06403301886748e+00Ḟ)	(8.57051713968168e+01dB,-1.35593682494285e+00Ḟ)
5.01187233627272e+02	(5.93687092622422e+01dB,9.81181539389153e-01Ḟ)	(8.57049864523218e+01dB,-1.32152367929761e+00Ḟ)
5.30884444230988e+02	(5.93688378052783e+01dB,9.01580032166722e-01Ḟ)	(8.57048118372943e+01dB,-1.29148811031754e+00Ḟ)
5.62341325190349e+02	(5.93689506749639e+01dB,8.24965016324379e-01Ḟ)	(8.57046452362181e+01dB,-1.26573082116086e+00Ḟ)
5.95662143529011e+02	(5.93690493678999e+01dB,7.51082853674297e-01Ḟ)	(8.57044844397263e+01dB,-1.24416662139889e+00Ḟ)
6.30957344480193e+02	(5.93691351918469e+01dB,6.79688917323717e-01Ḟ)	(8.57043273153397e+01dB,-1.22672415014109e+00Ḟ)
6.68343917568615e+02	(5.93692092863522e+01dB,6.10546788415216e-01Ḟ)	(8.57041717792268e+01dB,-1.21334564310898e+00Ḟ)
7.07945784384138e+02	(5.93692726330947e+01dB,5.43427479516957e-01Ḟ)	(8.57040157686329e+01dB,-1.20398674247260e+00Ḟ)
7.49894209332456e+02	(5.93693260727456e+01dB,4.78108681062376e-01Ḟ)	(8.57038572145458e+01dB,-1.19861634959995e+00Ḟ)
7.94328234724282e+02	(5.93693703142720e+01dB,4.14374029504416e-01Ḟ)	(8.57036940143143e+01dB,-1.19721651958389e+00Ḟ)
8.41395141645195e+02	(5.93694059440224e+01dB,3.52012394478833e-01Ḟ)	(8.57035240038176e+01dB,-1.19978239738990e+00Ḟ)
8.91250938133746e+02	(5.93694334347341e+01dB,2.90817182537790e-01Ḟ)	(8.57033449288187e+01dB,-1.20632219549853e+00Ḟ)
9.44060876285924e+02	(5.93694531508726e+01dB,2.30585655825501e-01Ḟ)	(8.57031544151410e+01dB,-1.21685721224977e+00Ḟ)
1.00000000000000e+03	(5.93694653548139e+01dB,1.71118262937156e-01Ḟ)	(8.57029499372799e+01dB,-1.23142189131169e+00Ḟ)
1.05925372517729e+03	(5.93694702074604e+01dB,1.12217980438043e-01Ḟ)	(8.57027287850246e+01dB,-1.25006392142894e+00Ḟ)
1.12201845430196e+03	(5.93694677735737e+01dB,5.36896622003412e-02Ḟ)	(8.57024880276445e+01dB,-1.27284437719262e+00Ḟ)
1.18850222743702e+03	(5.93694580211299e+01dB,-4.66060483243846e-03Ḟ)	(8.57022244752200e+01dB,-1.29983790003484e+00Ḟ)
1.25892541179417e+03	(5.93694408202838e+01dB,-6.30261406849128e-02Ḟ)	(8.57019346365696e+01dB,-1.33113291969071e+00Ḟ)
1.33352143216332e+03	(5.93694159433217e+01dB,-1.21600310741145e-01Ḟ)	(8.57016146732252e+01dB,-1.36683191642370e+00Ḟ)
1.41253754462276e+03	(5.93693830601151e+01dB,-1.80577163780719e-01Ḟ)	(8.57012603489101e+01dB,-1.40705172334598e+00Ḟ)
1.49623565609443e+03	(5.93693417345253e+01dB,-2.40152072097643e-01Ḟ)	(8.57008669738341e+01dB,-1.45192386909771e+00Ḟ)
1.58489319246111e+03	(5.93692914182760e+01dB,-3.00522375814026e-01Ḟ)	(8.57004293430800e+01dB,-1.50159496083291e+00Ḟ)
1.67880401812256e+03	(5.93692314442000e+01dB,-3.61888033122801e-01Ḟ)	(8.56999416683345e+01dB,-1.55622710688830e+00Ḟ)
1.77827941003892e+03	(5.93691610170755e+01dB,-4.24452278827246e-01Ḟ)	(8.56993975020776e+01dB,-1.61599837881152e+00Ḟ)
1.88364908948980e+03	(5.93690792025950e+01dB,-4.88422292805547e-01Ḟ)	(8.56987896532889e+01dB,-1.68110331207714e+00Ḟ)
1.99526231496888e+03	(5.93689849157165e+01dB,-5.54009880983411e-01Ḟ)	(8.56981100935974e+01dB,-1.75175344450435e+00Ḟ)
2.11348903983665e+03	(5.93688769066979e+01dB,-6.21432170669452e-01Ḟ)	(8.56973498527249e+01dB,-1.82817789129625e+00Ḟ)
2.23872113856834e+03	(5.93687537428213e+01dB,-6.90912321866939e-01Ḟ)	(8.56964989019675e+01dB,-1.91062395412350e+00Ḟ)
2.37137370566166e+03	(5.93686137916604e+01dB,-7.62680257809382e-01Ḟ)	(8.56955460242359e+01dB,-1.99935776305589e+00Ḟ)
2.51188643150958e+03	(5.93684551974980e+01dB,-8.36973415639025e-01Ḟ)	(8.56944786691740e+01dB,-2.09466494713983e+00Ḟ)
2.66072505979881e+03	(5.93682758578574e+01dB,-9.14037520127692e-01Ḟ)	(8.56932827915608e+01dB,-2.19685133061611e+00Ḟ)
2.81838293126446e+03	(5.93680733965935e+01dB,-9.94127382674191e-01Ḟ)	(8.56919426711685e+01dB,-2.30624364961729e+00Ḟ)
2.98538261891796e+03	(5.93678451297819e+01dB,-1.07750772683168e+00Ḟ)	(8.56904407120020e+01dB,-2.42319028214343e+00Ḟ)
3.16227766016838e+03	(5.93675880327679e+01dB,-1.16445404391512e+00Ḟ)	(8.56887572186363e+01dB,-2.54806198586578e+00Ḟ)
3.34965439157828e+03	(5.93672987001897e+01dB,-1.25525347987548e+00Ḟ)	(8.56868701471991e+01dB,-2.68125263228175e+00Ḟ)
3.54813389233576e+03	(5.93669732990788e+01dB,-1.35020575562244e+00Ḟ)	(8.56847548284008e+01dB,-2.82317992605941e+00Ḟ)
3.75837404288444e+03	(5.93666075203609e+01dB,-1.44962412370010e+00Ḟ)	(8.56823836596203e+01dB,-2.97428609684291e+00Ḟ)
3.98107170553498e+03	(5.93661965212274e+01dB,-1.55383636240827e+00Ḟ)	(8.56797257630690e+01dB,-3.13503854465463e+00Ḟ)
4.21696503428583e+03	(5.93657348617288e+01dB,-1.66318581024503e+00Ḟ)	(8.56767466066923e+01dB,-3.30593041979963e+00Ḟ)
4.46683592150963e+03	(5.93652164331114e+01dB,-1.77803244164675e+00Ḟ)	(8.56734075843420e+01dB,-3.48748111188846e+00Ḟ)
4.73151258961481e+03	(5.93646343772986e+01dB,-1.89875398669909e+00Ḟ)	(8.56696655516406e+01dB,-3.68023661878361e+00Ḟ)
5.01187233627273e+03	(5.93639809989294e+01dB,-2.02574709590507e+00Ḟ)	(8.56654723137124e+01dB,-3.88476976190906e+00Ḟ)
5.30884444230989e+03	(5.93632476616298e+01dB,-2.15942855066227e+00Ḟ)	(8.56607740611422e+01dB,-4.10168020341376e+00Ḟ)
5.62341325190350e+03	(5.93624246779991e+01dB,-2.30023652200960e+00Ḟ)	(8.56555107502695e+01dB,-4.33159422129419e+00Ḟ)
5.95662143529011e+03	(5.93615011814196e+01dB,-2.44863187632284e+00Ḟ)	(8.56496154243794e+01dB,-4.57516418124585e+00Ḟ)
6.30957344480194e+03	(5.93604649866737e+01dB,-2.60509952996782e+00Ḟ)	(8.56430134724091e+01dB,-4.83306764264989e+00Ḟ)
6.68343917568615e+03	(5.93593024300803e+01dB,-2.77014985040476e+00Ḟ)	(8.56356218225817e+01dB,-5.10600601807790e+00Ḟ)
7.07945784384138e+03	(5.93579981926316e+01dB,-2.94432010308197e+00Ḟ)	(8.56273480689277e+01dB,-5.39470270050911e+00Ḟ)
7.49894209332456e+03	(5.93565351045313e+01dB,-3.12817594377505e+00Ḟ)	(8.56180895297986e+01dB,-5.69990055678467e+00Ḟ)
7.94328234724282e+03	(5.93548939227661e+01dB,-3.32231294944560e+00Ḟ)	(8.56077322392644e+01dB,-6.02235866857433e+00Ḟ)
8.41395141645196e+03	(5.93530530846892e+01dB,-3.52735818497246e+00Ḟ)	(8.55961498739088e+01dB,-6.36284819308786e+00Ḟ)
8.91250938133746e+03	(5.93509884344588e+01dB,-3.74397180036870e+00Ḟ)	(8.55832026203709e+01dB,-6.72214719832565e+00Ḟ)
9.44060876285924e+03	(5.93486729161289e+01dB,-3.97284864679005e+00Ḟ)	(8.55687359924207e+01dB,-7.10103430836294e+00Ḟ)
1.00000000000000e+04	(5.93460762321324e+01dB,-4.21471990378765e+00Ḟ)	(8.55525796101998e+01dB,-7.50028098603344e+00Ḟ)
1.05925372517729e+04	(5.93431644642020e+01dB,-4.47035470207983e+00Ḟ)	(8.55345459597191e+01dB,-7.92064226320699e+00Ḟ)
1.12201845430196e+04	(5.93398996505700e+01dB,-4.74056172616900e+00Ḟ)	(8.55144291567680e+01dB,-8.36284571895167e+00Ḟ)
1.18850222743702e+04	(5.93362393192732e+01dB,-5.02619077631614e+00Ḟ)	(8.54920037465494e+01dB,-8.82757850649860e+00Ḟ)
1.25892541179417e+04	(5.93321359669226e+01dB,-5.32813426226136e+00Ḟ)	(8.54670235796044e+01dB,-9.31547222136406e+00Ḟ)
1.33352143216333e+04	(5.93275364858386e+01dB,-5.64732860138582e+00Ḟ)	(8.54392208136598e+01dB,-9.82708542871798e+00Ḟ)
1.41253754462276e+04	(5.93223815260536e+01dB,-5.98475548027050e+00Ḟ)	(8.54083051028637e+01dB,-1.03628836789666e+01Ḟ)
1.49623565609443e+04	(5.93166047971996e+01dB,-6.34144294066353e+00Ḟ)	(8.53739630469793e+01dB,-1.09232168980511e+01Ḟ)
1.58489319246111e+04	(5.93101322963830e+01dB,-6.71846623285524e+00Ḟ)	(8.53358579865926e+01dB,-1.15082940863059e+01Ḟ)
1.67880401812256e+04	(5.93028814613299e+01dB,-7.11694837677307e+00Ḟ)	(8.52936302423800e+01dB,-1.21181553559604e+01Ḟ)
1.77827941003892e+04	(5.92947602452988e+01dB,-7.53806035944051e+00Ḟ)	(8.52468979080529e+01dB,-1.27526414557150e+01Ḟ)
1.88364908948980e+04	(5.92856661061316e+01dB,-7.98302088190129e+00Ḟ)	(8.51952583168589e+01dB,-1.34113610704361e+01Ḟ)
1.99526231496888e+04	(5.92754849088003e+01dB,-8.45309556095422e+00Ḟ)	(8.51382903072077e+01dB,-1.40936563737326e+01Ḟ)
2.11348903983665e+04	(5.92640897380213e+01dB,-8.94959547024751e+00Ḟ)	(8.50755574143633e+01dB,-1.47985675205325e+01Ḟ)
2.23872113856834e+04	(5.92513396202403e+01dB,-9.47387489589751e+00Ḟ)	(8.50066121089771e+01dB,-1.55247970121593e+01Ḟ)
2.37137370566166e+04	(5.92370781562213e+01dB,-1.00273281589986e+01Ḟ)	(8.49310011880466e+01dB,-1.62706751242890e+01Ḟ)
2.51188643150958e+04	(5.92211320702937e+01dB,-1.06113853466162e+01Ḟ)	(8.48482723967383e+01dB,-1.70341278679185e+01Ḟ)
2.66072505979881e+04	(5.92033096800491e+01dB,-1.12275067676114e+01Ḟ)	(8.47579823217846e+01dB,-1.78126491886511e+01Ḟ)
2.81838293126446e+04	(5.91833993018035e+01dB,-1.18771759412090e+01Ḟ)	(8.46597055424807e+01dB,-1.86032793480079e+01Ḟ)
2.98538261891796e+04	(5.91611676096107e+01dB,-1.25618909082093e+01Ḟ)	(8.45530449603195e+01dB,-1.94025915652083e+01Ḟ)
3.16227766016838e+04	(5.91363579670217e+01dB,-1.32831536396995e+01Ḟ)	(8.44376431511538e+01dB,-2.02066890434690e+01Ḟ)
3.34965439157828e+04	(5.91086887693750e+01dB,-1.40424573206166e+01Ḟ)	(8.43131944969480e+01dB,-2.10112144344699e+01Ḟ)
3.54813389233576e+04	(5.90778518355532e+01dB,-1.48412712849061e+01Ḟ)	(8.41794577673656e+01dB,-2.18113735427156e+01Ḟ)
3.75837404288444e+04	(5.90435108959387e+01dB,-1.56810233842501e+01Ḟ)	(8.40362687388567e+01dB,-2.26019746650402e+01Ḟ)
3.98107170553498e+04	(5.90053002483413e+01dB,-1.65630796134822e+01Ḟ)	(8.38835523664183e+01dB,-2.33774843894311e+01Ḟ)
4.21696503428583e+04	(5.89628236459853e+01dB,-1.74887208496444e+01Ḟ)	(8.37213339780291e+01dB,-2.41320999329084e+01Ḟ)
4.46683592150963e+04	(5.89156535147665e+01dB,-1.84591166283838e+01Ḟ)	(8.35497489373880e+01dB,-2.48598372853464e+01Ḟ)
4.73151258961481e+04	(5.88633305928772e+01dB,-1.94752959899082e+01Ḟ)	(8.33690502385746e+01dB,-2.55546335208601e+01Ḟ)
5.01187233627273e+04	(5.88053641077620e+01dB,-2.05381155192533e+01Ḟ)	(8.31796135449975e+01dB,-2.62104607844804e+01Ḟ)
5.30884444230989e+04	(5.87412326096952e+01dB,-2.16482248945406e+01Ḟ)	(8.29819392705323e+01dB,-2.68214486918120e+01Ḟ)
5.62341325190350e+04	(5.86703855834083e+01dB,-2.28060304111323e+01Ḟ)	(8.27766514176154e+01dB,-2.73820112629825e+01Ḟ)
5.95662143529011e+04	(5.85922459641011e+01dB,-2.40116571798757e+01Ḟ)	(8.25644930209997e+01dB,-2.78869741246980e+01Ḟ)
6.30957344480194e+04	(5.85062136729253e+01dB,-2.52649109483314e+01Ḟ)	(8.23463181925749e+01dB,-2.83316975495820e+01Ḟ)
6.68343917568615e+04	(5.84116702615096e+01dB,-2.65652407064231e+01Ḟ)	(8.21230809104953e+01dB,-2.87121909876363e+01Ḟ)
7.07945784384139e+04	(5.83079847377598e+01dB,-2.79117035310856e+01Ḟ)	(8.18958208272464e+01dB,-2.90252150492984e+01Ḟ)
7.49894209332457e+04	(5.81945205919111e+01dB,-2.93029333103394e+01Ḟ)	(8.16656464925973e+01dB,-2.92683673756858e+01Ḟ)
7.94328234724282e+04	(5.80706439887744e+01dB,-3.07371151641588e+01Ḟ)	(8.14337164813537e+01dB,-2.94401494548559e+01Ḟ)
8.41395141645196e+04	(5.79357330315551e+01dB,-3.22119674779139e+01Ḟ)	(8.12012189867368e+01dB,-2.95400121351975e+01Ḟ)
8.91250938133746e+04	(5.77891879203684e+01dB,-3.37247334219968e+01Ḟ)	(8.09693504906983e+01dB,-2.95683783463196e+01Ḟ)
9.44060876285924e+04	(5.76304417480171e+01dB,-3.52721836433876e+01Ḟ)	(8.07392941533670e+01dB,-2.95266423025062e+01Ḟ)
1.00000000000000e+05	(5.74589716144707e+01dB,-3.68506315572058e+01Ḟ)	(8.05121985613807e+01dB,-2.94171452562886e+01Ḟ)
1.05925372517729e+05	(5.72743096490909e+01dB,-3.84559620921601e+01Ḟ)	(8.02891574799069e+01dB,-2.92431286406410e+01Ḟ)
1.12201845430196e+05	(5.70760535107889e+01dB,-4.00836742017517e+01Ḟ)	(8.00711912042376e+01dB,-2.90086662184962e+01Ḟ)
1.18850222743702e+05	(5.68638758916594e+01dB,-4.17289366586053e+01Ḟ)	(7.98592300680403e+01dB,-2.87185775955026e+01Ḟ)
1.25892541179417e+05	(5.66375325746499e+01dB,-4.33866558835095e+01Ḟ)	(7.96541005818171e+01dB,-2.83783261464016e+01Ḟ)
1.33352143216333e+05	(5.63968686355407e+01dB,-4.50515537922995e+01Ḟ)	(7.94565145766924e+01dB,-2.79939050017846e+01Ḟ)
1.41253754462276e+05	(5.61418224605114e+01dB,-4.67182529314744e+01Ḟ)	(7.92670616105753e+01dB,-2.75717151961063e+01Ḟ)
1.49623565609444e+05	(5.58724273637252e+01dB,-4.83813657010817e+01Ḟ)	(7.90862047516420e+01dB,-2.71184403417861e+01Ḟ)
1.58489319246112e+05	(5.55888107096448e+01dB,-5.00355841064959e+01Ḟ)	(7.89142797126375e+01dB,-2.66409222596245e+01Ḟ)
1.67880401812256e+05	(5.52911905960474e+01dB,-5.16757665084509e+01Ḟ)	(7.87514971574174e+01dB,-2.61460417636841e+01Ḟ)
1.77827941003893e+05	(5.49798702729830e+01dB,-5.32970180064761e+01Ḟ)	(7.85979478733904e+01dB,-2.56406083992070e+01Ḟ)
