Freq.	V(vin)/I(CB)	V(vc)/Ic(Q1)	V(vc)/V(vin)
1.00000000000000e+02	(7.35654663745407e+01dB,1.72421768822696e+02Ḟ)	(7.41514035219305e+01dB,1.79999999999965e+02Ḟ)	(2.98829451199901e+01dB,-9.97117969570052e+01Ḟ)
1.12201845430196e+02	(7.35194874284659e+01dB,1.72002240646150e+02Ḟ)	(7.41514035219536e+01dB,-1.79999999999969e+02Ḟ)	(3.08530437557578e+01dB,-1.00786094058174e+02Ḟ)
1.25892541179417e+02	(7.34635457874900e+01dB,1.71511908792940e+02Ḟ)	(7.41514035219328e+01dB,1.79999999999979e+02Ḟ)	(3.18158787569231e+01dB,-1.01991398451847e+02Ḟ)
1.41253754462275e+02	(7.33957366239118e+01dB,1.70956541987080e+02Ḟ)	(7.41514035219503e+01dB,-1.79999999999977e+02Ḟ)	(3.27696865581877e+01dB,-1.03338993035399e+02Ḟ)
1.58489319246111e+02	(7.33140340387162e+01dB,1.70344645454816e+02Ḟ)	(7.41514035219101e+01dB,-1.79999999999973e+02Ḟ)	(3.37123401331773e+01dB,-1.04840288994771e+02Ḟ)
1.77827941003892e+02	(7.32163886784609e+01dB,1.69688195275624e+02Ḟ)	(7.41514035219165e+01dB,1.79999999999973e+02Ḟ)	(3.46412963581175e+01dB,-1.06506387597121e+02Ḟ)
1.99526231496888e+02	(7.31008786851568e+01dB,1.69003269770428e+02Ḟ)	(7.41514035219085e+01dB,1.79999999999947e+02Ḟ)	(3.55535496818943e+01dB,-1.08347482237522e+02Ḟ)
2.23872113856834e+02	(7.29659171113194e+01dB,1.68310414523856e+02Ḟ)	(7.41514035219136e+01dB,-1.79999999999964e+02Ḟ)	(3.64456005964582e+01dB,-1.10372080630920e+02Ḟ)
2.51188643150958e+02	(7.28105071951508e+01dB,1.67634538262159e+02Ḟ)	(7.41514035219170e+01dB,1.79999999999984e+02Ḟ)	(3.73134504782454e+01dB,-1.12586043805567e+02Ḟ)
2.81838293126445e+02	(7.26345197861369e+01dB,1.67004136058512e+02Ḟ)	(7.41514035219297e+01dB,1.79999999999964e+02Ḟ)	(3.81526370193340e+01dB,-1.14991468665578e+02Ḟ)
3.16227766016838e+02	(7.24389478962589e+01dB,1.66449702877510e+02Ḟ)	(7.41514035218927e+01dB,1.79999999999865e+02Ḟ)	(3.89583254752431e+01dB,-1.17585486083412e+02Ḟ)
3.54813389233575e+02	(7.22260785053872e+01dB,1.66001350269791e+02Ḟ)	(7.41514035219066e+01dB,-1.79999999999949e+02Ḟ)	(3.97254686529984e+01dB,-1.20359103797958e+02Ḟ)
3.98107170553497e+02	(7.19995201647471e+01dB,1.65685855905209e+02Ḟ)	(7.41514035219134e+01dB,1.79999999999966e+02Ḟ)	(4.04490412372913e+01dB,-1.23296281893511e+02Ḟ)
4.46683592150963e+02	(7.17640435604984e+01dB,1.65523600242201e+02Ḟ)	(7.41514035219127e+01dB,-1.79999999999972e+02Ḟ)	(4.11243408690805e+01dB,-1.26373467807183e+02Ḟ)
5.01187233627272e+02	(7.15252309839919e+01dB,1.65525986831952e+02Ḟ)	(7.41514035219396e+01dB,-1.79999999999990e+02Ḟ)	(4.17473306359793e+01dB,-1.29559810917298e+02Ḟ)
5.62341325190348e+02	(7.12889796792372e+01dB,1.65693921015702e+02Ḟ)	(7.41514035218933e+01dB,-1.79999999999998e+02Ḟ)	(4.23149796103370e+01dB,-1.32818201568574e+02Ḟ)
6.30957344480193e+02	(7.10609459628364e+01dB,1.66017711729645e+02Ḟ)	(7.41514035218999e+01dB,1.79999999999994e+02Ḟ)	(4.28255465790167e+01dB,-1.36107134178385e+02Ḟ)
7.07945784384137e+02	(7.08460348981403e+01dB,1.66478421122338e+02Ḟ)	(7.41514035219296e+01dB,1.79999999999994e+02Ḟ)	(4.32787538367010e+01dB,-1.39383209816161e+02Ḟ)
7.94328234724280e+02	(7.06480265153446e+01dB,1.67050337641931e+02Ḟ)	(7.41514035219180e+01dB,1.79999999999997e+02Ḟ)	(4.36758155439325e+01dB,-1.42603929994147e+02Ḟ)
8.91250938133744e+02	(7.04693900115494e+01dB,1.67704015569768e+02Ḟ)	(7.41514035219349e+01dB,1.79999999999848e+02Ḟ)	(4.40193146496959e+01dB,-1.45730353768522e+02Ḟ)
9.99999999999999e+02	(7.03112881999116e+01dB,1.68409276639809e+02Ḟ)	(7.41514035219279e+01dB,1.79999999999899e+02Ḟ)	(4.43129539668088e+01dB,-1.48729228071982e+02Ḟ)
1.12201845430196e+03	(7.01737335269177e+01dB,1.69137693523399e+02Ḟ)	(7.41514035219268e+01dB,1.79999999999885e+02Ḟ)	(4.45612298262092e+01dB,-1.51574340411675e+02Ḟ)
1.25892541179417e+03	(7.00558354451622e+01dB,1.69864294056256e+02Ḟ)	(7.41514035219559e+01dB,1.79999999999889e+02Ḟ)	(4.47690843315221e+01dB,-1.54247027598003e+02Ḟ)
1.41253754462275e+03	(6.99560781053668e+01dB,1.70568447380816e+02Ḟ)	(7.41514035219483e+01dB,1.79999999999938e+02Ḟ)	(4.49415849571907e+01dB,-1.56735939187824e+02Ḟ)
1.58489319246111e+03	(6.98725809222561e+01dB,1.71234053831735e+02Ḟ)	(7.41514035219031e+01dB,-1.79999999999939e+02Ḟ)	(4.50836637506721e+01dB,-1.59036256679598e+02Ḟ)
1.77827941003892e+03	(6.98033137489383e+01dB,1.71849237690086e+02Ḟ)	(7.41514035218938e+01dB,-1.79999999999935e+02Ḟ)	(4.51999298793468e+01dB,-1.61148599674012e+02Ḟ)
1.99526231496888e+03	(6.97462560622109e+01dB,1.72405748631095e+02Ḟ)	(7.41514035219142e+01dB,1.79999999999988e+02Ḟ)	(4.52945540953186e+01dB,-1.63077824816795e+02Ḟ)
2.23872113856833e+03	(6.96995020906608e+01dB,1.72898241810580e+02Ḟ)	(7.41514035219343e+01dB,1.79999999999950e+02Ḟ)	(4.53712142195577e+01dB,-1.64831869095787e+02Ḟ)
2.51188643150957e+03	(6.96613206505372e+01dB,1.73323555074497e+02Ḟ)	(7.41514035219161e+01dB,-1.79999999999944e+02Ḟ)	(4.54330867696373e+01dB,-1.66420729531851e+02Ḟ)
2.81838293126445e+03	(6.96301807731019e+01dB,1.73680052842044e+02Ḟ)	(7.41514035219276e+01dB,-1.79999999999973e+02Ḟ)	(4.54828698516515e+01dB,-1.67855620943326e+02Ḟ)
3.16227766016837e+03	(6.96047536998369e+01dB,1.73967068309517e+02Ḟ)	(7.41514035219239e+01dB,-1.79999999999981e+02Ḟ)	(4.55228246464148e+01dB,-1.69148317817730e+02Ḟ)
3.54813389233575e+03	(6.95838999555259e+01dB,1.74184450413669e+02Ḟ)	(7.41514035219538e+01dB,1.79999999999970e+02Ḟ)	(4.55548258403430e+01dB,-1.70310665000134e+02Ḟ)
3.98107170553496e+03	(6.95666479748479e+01dB,1.74332207585863e+02Ḟ)	(7.41514035219652e+01dB,1.79999999999984e+02Ḟ)	(4.55804143060250e+01dB,-1.71354231753781e+02Ḟ)
4.46683592150962e+03	(6.95521686965179e+01dB,1.74410233688529e+02Ḟ)	(7.41514035219091e+01dB,-1.79999999999993e+02Ḟ)	(4.56008478031547e+01dB,-1.72290081054376e+02Ḟ)
5.01187233627271e+03	(6.95397488699641e+01dB,1.74418099795179e+02Ḟ)	(7.41514035219493e+01dB,1.79999999999972e+02Ḟ)	(4.56171473263670e+01dB,-1.73128627585947e+02Ḟ)
5.62341325190348e+03	(6.95287645762007e+01dB,1.74354896478506e+02Ḟ)	(7.41514035219563e+01dB,-1.79999999999997e+02Ḟ)	(4.56301380152063e+01dB,-1.73879561551044e+02Ḟ)
6.30957344480191e+03	(6.95186555910095e+01dB,1.74219113563673e+02Ḟ)	(7.41514035219394e+01dB,1.79999999999990e+02Ḟ)	(4.56404843720691e+01dB,-1.74551819668711e+02Ḟ)
7.07945784384136e+03	(6.95089006309317e+01dB,1.74008547039007e+02Ḟ)	(7.41514035219496e+01dB,-1.79999999999997e+02Ḟ)	(4.56487200266354e+01dB,-1.75153588824065e+02Ḟ)
7.94328234724279e+03	(6.94989931390753e+01dB,1.73720225563287e+02Ḟ)	(7.41514035219287e+01dB,1.79999999999999e+02Ḟ)	(4.56552725452280e+01dB,-1.75692331389634e+02Ḟ)
8.91250938133743e+03	(6.94884170220891e+01dB,1.73350351611717e+02Ḟ)	(7.41514035218967e+01dB,1.79999999999999e+02Ḟ)	(4.56604838926243e+01dB,-1.76174824148479e+02Ḟ)
9.99999999999997e+03	(6.94766215942676e+01dB,1.72894254760464e+02Ḟ)	(7.41514035218954e+01dB,-1.79999999999976e+02Ḟ)	(4.56646271711819e+01dB,-1.76607205033850e+02Ḟ)
1.12201845430196e+04	(6.94629948905439e+01dB,1.72346357016299e+02Ḟ)	(7.41514035219514e+01dB,1.79999999999995e+02Ḟ)	(4.56679202279631e+01dB,-1.76995023640356e+02Ḟ)
1.25892541179416e+04	(6.94468344650232e+01dB,1.71700152591602e+02Ḟ)	(7.41514035219047e+01dB,-1.79999999999996e+02Ḟ)	(4.56705366609230e+01dB,-1.77343292756574e+02Ḟ)
1.41253754462275e+04	(6.94273148006974e+01dB,1.70948207261394e+02Ḟ)	(7.41514035219456e+01dB,1.79999999999996e+02Ḟ)	(4.56726146862066e+01dB,-1.77656539113862e+02Ḟ)
1.58489319246111e+04	(6.94034505418945e+01dB,1.70082185567530e+02Ḟ)	(7.41514035219338e+01dB,1.79999999999996e+02Ḟ)	(4.56742642594984e+01dB,-1.77938852224124e+02Ḟ)
1.77827941003892e+04	(6.93740549670009e+01dB,1.69092917761929e+02Ḟ)	(7.41514035219659e+01dB,1.79999999999997e+02Ḟ)	(4.56755727801459e+01dB,-1.78193930657722e+02Ḟ)
1.99526231496887e+04	(6.93376935121204e+01dB,1.67970522506630e+02Ḟ)	(7.41514035219514e+01dB,1.79999999999991e+02Ḟ)	(4.56766096496967e+01dB,-1.78425125445011e+02Ḟ)
2.23872113856833e+04	(6.92926328286153e+01dB,1.66704605790427e+02Ḟ)	(7.41514035219311e+01dB,1.79999999999997e+02Ḟ)	(4.56774299072117e+01dB,-1.78635480511449e+02Ḟ)
2.51188643150957e+04	(6.92367869228983e+01dB,1.65284560749606e+02Ḟ)	(7.41514035219438e+01dB,-1.79999999999999e+02Ḟ)	(4.56780771220117e+01dB,-1.78827770207270e+02Ḟ)
2.81838293126444e+04	(6.91676635047458e+01dB,1.63699996041278e+02Ḟ)	(7.41514035219370e+01dB,-1.79999999999998e+02Ḟ)	(4.56785856897173e+01dB,-1.79004534090691e+02Ḟ)
3.16227766016837e+04	(6.90823158466619e+01dB,1.61941320306559e+02Ḟ)	(7.41514035219478e+01dB,1.79999999999997e+02Ḟ)	(4.56789826486667e+01dB,-1.79168109184730e+02Ḟ)
3.54813389233574e+04	(6.89773082085431e+01dB,1.60000504372306e+02Ḟ)	(7.41514035219212e+01dB,-1.79999999999998e+02Ḟ)	(4.56792891101661e+01dB,-1.79320659963806e+02Ḟ)
3.98107170553496e+04	(6.88487059586038e+01dB,1.57872027663869e+02Ḟ)	(7.41514035219105e+01dB,1.79999999999999e+02Ḟ)	(4.56795213766640e+01dB,-1.79464206345642e+02Ḟ)
4.46683592150961e+04	(6.86921042936207e+01dB,1.55553987213532e+02Ḟ)	(7.41514035219009e+01dB,-1.79999999999998e+02Ḟ)	(4.56796918060911e+01dB,-1.79600649972583e+02Ḟ)
5.01187233627270e+04	(6.85027107916001e+01dB,1.53049304508095e+02Ḟ)	(7.41514035219022e+01dB,-1.80000000000000e+02Ḟ)	(4.56798094675693e+01dB,-1.79731799068549e+02Ḟ)
5.62341325190347e+04	(6.82754952954515e+01dB,1.50366909346209e+02Ḟ)	(7.41514035219577e+01dB,1.80000000000000e+02Ḟ)	(4.56798806228952e+01dB,-1.79859392156248e+02Ḟ)
6.30957344480191e+04	(6.80054140787278e+01dB,1.47522720537782e+02Ḟ)	(7.41514035219587e+01dB,-1.80000000000000e+02Ḟ)	(4.56799090591173e+01dB,-1.79985120916120e+02Ḟ)
7.07945784384135e+04	(6.76877028566595e+01dB,1.44540199920102e+02Ḟ)	(7.41514035218974e+01dB,-1.80000000000000e+02Ḟ)	(4.56798962897289e+01dB,1.79889347534948e+02Ḟ)
7.94328234724278e+04	(6.73182159003306e+01dB,1.41450255135516e+02Ḟ)	(7.41514035219031e+01dB,1.79999999999999e+02Ḟ)	(4.56798416350861e+01dB,1.79762348669782e+02Ḟ)
8.91250938133742e+04	(6.68937701627030e+01dB,1.38290331660232e+02Ḟ)	(7.41514035219029e+01dB,1.79999999999999e+02Ḟ)	(4.56797421862944e+01dB,1.79632198608196e+02Ḟ)
9.99999999999995e+04	(6.64124404973018e+01dB,1.35102671192158e+02Ḟ)	(7.41514035219399e+01dB,-1.79999999999998e+02Ḟ)	(4.56795926506587e+01dB,1.79497171931581e+02Ḟ)
1.12201845430196e+05	(6.58737516686507e+01dB,1.31931895456093e+02Ḟ)	(7.41514035219060e+01dB,1.79999999999997e+02Ḟ)	(4.56793850705434e+01dB,1.79355478979501e+02Ḟ)
1.25892541179416e+05	(6.52787283733829e+01dB,1.28822245038691e+02Ḟ)	(7.41514035218909e+01dB,1.79999999999993e+02Ḟ)	(4.56791084008249e+01dB,1.79205242350128e+02Ḟ)
1.41253754462275e+05	(6.46297928471552e+01dB,1.25814897090082e+02Ḟ)	(7.41514035218938e+01dB,1.79999999999997e+02Ḟ)	(4.56787479226983e+01dB,1.79044472322471e+02Ḟ)
1.58489319246111e+05	(6.39305316229065e+01dB,1.22945764317387e+02Ḟ)	(7.41514035219195e+01dB,-1.79999999999999e+02Ḟ)	(4.56782844630534e+01dB,1.78871040914407e+02Ḟ)
1.77827941003891e+05	(6.31853775900762e+01dB,1.20244049776283e+02Ḟ)	(7.41514035219534e+01dB,-1.79999999999996e+02Ḟ)	(4.56776933785372e+01dB,1.78682654287492e+02Ḟ)
1.99526231496887e+05	(6.23992633460907e+01dB,1.17731649656535e+02Ḟ)	(7.41514035219634e+01dB,-1.79999999999990e+02Ḟ)	(4.56769432512996e+01dB,1.78476823209235e+02Ḟ)
2.23872113856833e+05	(6.15772963665815e+01dB,1.15423325270586e+02Ḟ)	(7.41514035219207e+01dB,1.79999999999994e+02Ḟ)	(4.56759942287063e+01dB,1.78250831288530e+02Ḟ)
2.51188643150957e+05	(6.07244908899236e+01dB,1.13327453125934e+02Ḟ)	(7.41514035218956e+01dB,1.79999999999985e+02Ḟ)	(4.56747959213557e+01dB,1.78001700713824e+02Ḟ)
2.81838293126444e+05	(5.98455728117676e+01dB,1.11447122366821e+02Ḟ)	(7.41514035219193e+01dB,1.79999999999994e+02Ḟ)	(4.56732847518221e+01dB,1.77726155251618e+02Ḟ)
3.16227766016836e+05	(5.89448580722067e+01dB,1.09781368081460e+02Ḟ)	(7.41514035219375e+01dB,-1.79999999999984e+02Ḟ)	(4.56713806198218e+01dB,1.77420580312420e+02Ḟ)
3.54813389233574e+05	(5.80261947603455e+01dB,1.08326380728776e+02Ḟ)	(7.41514035219290e+01dB,-1.79999999999994e+02Ḟ)	(4.56689827170870e+01dB,1.77080979972551e+02Ḟ)
3.98107170553495e+05	(5.70929545381101e+01dB,1.07076591698165e+02Ḟ)	(7.41514035218937e+01dB,1.79999999999984e+02Ḟ)	(4.56659642862384e+01dB,1.76702930967726e+02Ḟ)
4.46683592150961e+05	(5.61480585877996e+01dB,1.06025586954489e+02Ḟ)	(7.41514035218968e+01dB,1.79999999999983e+02Ḟ)	(4.56621660715871e+01dB,1.76281533867805e+02Ḟ)
5.01187233627269e+05	(5.51940253401899e+01dB,1.05166838183155e+02Ḟ)	(7.41514035219308e+01dB,-1.80000000000000e+02Ḟ)	(4.56573881556528e+01dB,1.75811361928658e+02Ḟ)
5.62341325190346e+05	(5.42330302748936e+01dB,1.04494263582867e+02Ḟ)	(7.41514035219554e+01dB,-1.79999999999974e+02Ḟ)	(4.56513798134939e+01dB,1.75286408532990e+02Ḟ)
6.30957344480190e+05	(5.32669711491350e+01dB,1.04002641329085e+02Ḟ)	(7.41514035219568e+01dB,-1.79999999999972e+02Ḟ)	(4.56438269492667e+01dB,1.74700034725343e+02Ḟ)
7.07945784384134e+05	(5.22975346258862e+01dB,1.03687901413816e+02Ḟ)	(7.41514035219195e+01dB,-1.79999999999991e+02Ḟ)	(4.56343366095425e+01dB,1.74044919179171e+02Ḟ)
7.94328234724277e+05	(5.13262622783843e+01dB,1.03547319251208e+02Ḟ)	(7.41514035219210e+01dB,-1.80000000000000e+02Ḟ)	(4.56224180032289e+01dB,1.73313014083102e+02Ḟ)
8.91250938133740e+05	(5.03546153530144e+01dB,1.03579629409915e+02Ḟ)	(7.41514035219207e+01dB,-1.79999999999977e+02Ḟ)	(4.56074594116265e+01dB,1.72495511990575e+02Ḟ)
9.99999999999994e+05	(4.93840385674702e+01dB,1.03785071536548e+02Ḟ)	(7.41514035219584e+01dB,-1.79999999999940e+02Ḟ)	(4.55887003660276e+01dB,1.71582830741234e+02Ḟ)
1.12201845430196e+06	(4.84160236828522e+01dB,1.04165373722033e+02Ḟ)	(7.41514035219559e+01dB,-1.79999999999979e+02Ḟ)	(4.55651985386323e+01dB,1.70564626225116e+02Ḟ)
1.25892541179416e+06	(4.74521736818306e+01dB,1.04723671609228e+02Ḟ)	(7.41514035219143e+01dB,1.79999999999937e+02Ḟ)	(4.55357909868261e+01dB,1.69429846072207e+02Ḟ)
1.41253754462275e+06	(4.64942681168424e+01dB,1.05464354625051e+02Ḟ)	(7.41514035219291e+01dB,1.79999999999937e+02Ḟ)	(4.54990497839312e+01dB,1.68166841259864e+02Ḟ)
1.58489319246110e+06	(4.55443295302685e+01dB,1.06392824090955e+02Ḟ)	(7.41514035219181e+01dB,-1.79999999999991e+02Ḟ)	(4.54532327581237e+01dB,1.66763556887726e+02Ḟ)
1.77827941003891e+06	(4.46046897192276e+01dB,1.07515142149742e+02Ḟ)	(7.41514035219679e+01dB,-1.79999999999983e+02Ḟ)	(4.53962311616189e+01dB,1.65207827371576e+02Ḟ)
1.99526231496887e+06	(4.36780529284639e+01dB,1.08837546496124e+02Ḟ)	(7.41514035219153e+01dB,1.79999999999926e+02Ḟ)	(4.53255177224115e+01dB,1.63487803899506e+02Ḟ)
2.23872113856832e+06	(4.27675507497916e+01dB,1.10365805647941e+02Ḟ)	(7.41514035219207e+01dB,1.79999999999909e+02Ḟ)	(4.52381007675947e+01dB,1.61592541250885e+02Ḟ)
2.51188643150956e+06	(4.18767806358688e+01dB,1.12104395682805e+02Ḟ)	(7.41514035218909e+01dB,1.79999999999957e+02Ḟ)	(4.51304929060746e+01dB,1.59512764170481e+02Ḟ)
2.81838293126443e+06	(4.10098167996821e+01dB,1.14055495510347e+02Ḟ)	(7.41514035218955e+01dB,1.79999999999901e+02Ḟ)	(4.49987058291495e+01dB,1.57241816834532e+02Ḟ)
3.16227766016836e+06	(4.01711795569417e+01dB,1.16217827352184e+02Ḟ)	(7.41514035219237e+01dB,-1.79999999999895e+02Ḟ)	(4.48382854410462e+01dB,1.54776768983323e+02Ḟ)
3.54813389233573e+06	(3.93657480845718e+01dB,1.18585413893219e+02Ḟ)	(7.41514035219247e+01dB,-1.79999999999839e+02Ḟ)	(4.46444025628338e+01dB,1.52119607254232e+02Ḟ)
3.98107170553494e+06	(3.85986037814618e+01dB,1.21146380629590e+02Ḟ)	(7.41514035219217e+01dB,-1.79999999999843e+02Ḟ)	(4.44120121941464e+01dB,1.49278383016040e+02Ḟ)
4.46683592150960e+06	(3.78747986422231e+01dB,1.23881990418095e+02Ḟ)	(7.41514035219153e+01dB,-1.79999999999926e+02Ḟ)	(4.41360870528545e+01dB,1.46268129408982e+02Ḟ)
5.01187233627269e+06	(3.71990561429326e+01dB,1.26766136711048e+02Ḟ)	(7.41514035219347e+01dB,1.79999999999980e+02Ḟ)	(4.38119179910712e+01dB,1.43111320743747e+02Ḟ)
5.62341325190345e+06	(3.65754298295873e+01dB,1.29765515693992e+02Ḟ)	(7.41514035219425e+01dB,1.79999999999887e+02Ḟ)	(4.34354561618043e+01dB,1.39837653621164e+02Ḟ)
6.30957344480189e+06	(3.60069628332838e+01dB,1.32840623183748e+02Ḟ)	(7.41514035219173e+01dB,-1.79999999999882e+02Ḟ)	(4.30036537518634e+01dB,1.36483003473840e+02Ḟ)
7.07945784384133e+06	(3.54954031199151e+01dB,1.35947577614616e+02Ḟ)	(7.41514035219418e+01dB,-1.79999999999984e+02Ḟ)	(4.25147484854038e+01dB,1.33087554737386e+02Ḟ)
7.94328234724276e+06	(3.50410277104354e+01dB,1.39040586351019e+02Ḟ)	(7.41514035219260e+01dB,-1.79999999999874e+02Ḟ)	(4.19684386494343e+01dB,1.29693286948535e+02Ḟ)
8.91250938133739e+06	(3.46426116292985e+01dB,1.42074708317119e+02Ḟ)	(7.41514035219339e+01dB,-1.79999999999943e+02Ḟ)	(4.13659128455134e+01dB,1.26341163323892e+02Ḟ)
9.99999999999993e+06	(3.42975479048677e+01dB,1.45008485104533e+02Ḟ)	(7.41514035219166e+01dB,-1.79999999999874e+02Ḟ)	(4.07097280777267e+01dB,1.23068449228537e+02Ḟ)
1.12201845430195e+07	(3.40020932916240e+01dB,1.47806049248216e+02Ḟ)	(7.41514035219358e+01dB,1.79999999999830e+02Ḟ)	(4.00035614105916e+01dB,1.19906551451419e+02Ḟ)
1.25892541179416e+07	(3.37516913702667e+01dB,1.50438456775813e+02Ḟ)	(7.41514035219303e+01dB,1.79999999999952e+02Ḟ)	(3.92518834100892e+01dB,1.16879630866430e+02Ḟ)
1.41253754462274e+07	(3.35413168714714e+01dB,1.52884175663482e+02Ḟ)	(7.41514035219091e+01dB,1.79999999999977e+02Ḟ)	(3.84596093525278e+01dB,1.14004056644589e+02Ḟ)
1.58489319246110e+07	(3.33657921656750e+01dB,1.55128827533413e+02Ḟ)	(7.41514035219426e+01dB,1.79999999999965e+02Ḟ)	(3.76317770417243e+01dB,1.11288604623438e+02Ḟ)
1.77827941003891e+07	(3.32200432441957e+01dB,1.57164383406658e+02Ḟ)	(7.41514035219083e+01dB,-1.79999999999920e+02Ḟ)	(3.67732836426822e+01dB,1.08735199245215e+02Ḟ)
1.99526231496886e+07	(3.30992810033398e+01dB,1.58988045582084e+02Ḟ)	(7.41514035219622e+01dB,1.79999999999988e+02Ḟ)	(3.58886953911578e+01dB,1.06339967533798e+02Ḟ)
2.23872113856832e+07	(3.29991088244913e+01dB,1.60601023331440e+02Ḟ)	(7.41514035218991e+01dB,-1.79999999999938e+02Ḟ)	(3.49821287935797e+01dB,1.04094398503052e+02Ḟ)
2.51188643150956e+07	(3.29155669368280e+01dB,1.62007356704670e+02Ḟ)	(7.41514035219666e+01dB,1.79999999999962e+02Ḟ)	(3.40571923677970e+01dB,1.01986455486728e+02Ḟ)
2.81838293126443e+07	(3.28451280452649e+01dB,1.63212884104748e+02Ḟ)	(7.41514035219663e+01dB,1.79999999999932e+02Ḟ)	(3.31169739125419e+01dB,1.00001548518313e+02Ḟ)
3.16227766016835e+07	(3.27846587268161e+01dB,1.64224400047199e+02Ḟ)	(7.41514035219180e+01dB,1.79999999999999e+02Ḟ)	(3.21640582187435e+01dB,9.81233245107465e+01Ḟ)
3.54813389233572e+07	(3.27313589231135e+01dB,1.65049015334225e+02Ḟ)	(7.41514035219559e+01dB,1.79999999999997e+02Ḟ)	(3.12005622863074e+01dB,9.63342689815739e+01Ḟ)
3.98107170553494e+07	(3.26826889249628e+01dB,1.65693712534100e+02Ḟ)	(7.41514035219269e+01dB,-1.79999999999993e+02Ḟ)	(3.02281780773184e+01dB,9.46161348095593e+01Ḟ)
4.46683592150959e+07	(3.26362904794873e+01dB,1.66165082023754e+02Ḟ)	(7.41514035219170e+01dB,-1.79999999999996e+02Ḟ)	(2.92482157389268e+01dB,9.29502241646069e+01Ḟ)
5.01187233627268e+07	(3.25899065421114e+01dB,1.66469224179506e+02Ḟ)	(7.41514035219295e+01dB,-1.79999999999996e+02Ḟ)	(2.82616426405471e+01dB,9.13175530847230e+01Ḟ)
5.62341325190344e+07	(3.25413029511908e+01dB,1.66611808232285e+02Ḟ)	(7.41514035219518e+01dB,-1.79999999999989e+02Ḟ)	(2.72691153709974e+01dB,8.96989274122286e+01Ḟ)
6.30957344480188e+07	(3.24881949797687e+01dB,1.66598284971643e+02Ḟ)	(7.41514035219258e+01dB,-1.80000000000000e+02Ḟ)	(2.62710030808095e+01dB,8.80749562971677e+01Ḟ)
7.07945784384132e+07	(3.24281823229949e+01dB,1.66434256686761e+02Ḟ)	(7.41514035219400e+01dB,1.79999999999992e+02Ḟ)	(2.52674013552419e+01dB,8.64260267527629e+01Ḟ)
7.94328234724274e+07	(3.23586975602797e+01dB,1.66126010663305e+02Ḟ)	(7.41514035219605e+01dB,-1.79999999999958e+02Ḟ)	(2.42581363066857e+01dB,8.47322607001678e+01Ḟ)
8.91250938133737e+07	(3.22769753816774e+01dB,1.65681219732478e+02Ḟ)	(7.41514035219419e+01dB,-1.79999999999989e+02Ḟ)	(2.32427589209791e+01dB,8.29734750316083e+01Ḟ)
1.00000000000000e+08	(3.21800525815151e+01dB,1.65109800987478e+02Ḟ)	(7.41514035218956e+01dB,1.79999999999949e+02Ḟ)	(2.22205300141999e+01dB,8.11291656258025e+01Ḟ)
