Freq.	V(vc)/V(vin)	V(vin)/I(CB)	V(vc)/Ic(Q1)
1.00000000000000e+02	(2.98298197132056e+01dB,-9.97327957698988e+01°)	(7.32345460976555e+01dB,1.67065309150182e+02°)	(7.41599149284588e+01dB,1.79999999999989e+02°)
1.05925372517729e+02	(3.03155872254567e+01dB,-1.00256812815240e+02°)	(7.31842961552732e+01dB,1.66612862998058e+02°)	(7.41599149284640e+01dB,1.79999999999954e+02°)
1.12201845430196e+02	(3.07997218449986e+01dB,-1.00812251127658e+02°)	(7.31290761440020e+01dB,1.66137347649534e+02°)	(7.41599149284677e+01dB,-1.79999999999963e+02°)
1.18850222743702e+02	(3.12820323055296e+01dB,-1.01400489670452e+02°)	(7.30684931427100e+01dB,1.65640406267213e+02°)	(7.41599149284672e+01dB,-1.79999999999980e+02°)
1.25892541179417e+02	(3.17623078672476e+01dB,-1.02022934746016e+02°)	(7.30021513803713e+01dB,1.65124005896697e+02°)	(7.41599149284370e+01dB,1.79999999999967e+02°)
1.33352143216332e+02	(3.22403166509752e+01dB,-1.02681011377733e+02°)	(7.29296583802071e+01dB,1.64590467499390e+02°)	(7.41599149284632e+01dB,-1.79999999999993e+02°)
1.41253754462275e+02	(3.27158039473292e+01dB,-1.03376152829539e+02°)	(7.28506323148608e+01dB,1.64042491936435e+02°)	(7.41599149284712e+01dB,1.79999999999942e+02°)
1.49623565609443e+02	(3.31884905311084e+01dB,-1.04109788037552e+02°)	(7.27647105668210e+01dB,1.63483180038568e+02°)	(7.41599149284634e+01dB,1.79999999999974e+02°)
1.58489319246111e+02	(3.36580710199959e+01dB,-1.04883326728015e+02°)	(7.26715594250388e+01dB,1.62916044726121e+02°)	(7.41599149284397e+01dB,1.79999999999941e+02°)
1.67880401812256e+02	(3.41242123267886e+01dB,-1.05698142007991e+02°)	(7.25708847726094e+01dB,1.62345013064418e+02°)	(7.41599149285004e+01dB,-1.79999999999932e+02°)
1.77827941003892e+02	(3.45865522657008e+01dB,-1.06555550238523e+02°)	(7.24624435344363e+01dB,1.61774416185376e+02°)	(7.41599149284836e+01dB,1.79999999999995e+02°)
1.88364908948980e+02	(3.50446983854594e+01dB,-1.07456788042847e+02°)	(7.23460555627074e+01dB,1.61208965206972e+02°)	(7.41599149284406e+01dB,1.79999999999913e+02°)
1.99526231496888e+02	(3.54982271146075e+01dB,-1.08402986364660e+02°)	(7.22216155486127e+01dB,1.60653711659562e+02°)	(7.41599149284661e+01dB,-1.79999999999989e+02°)
2.11348903983665e+02	(3.59466833169311e+01dB,-1.09395141580160e+02°)	(7.20891044692849e+01dB,1.60113991490374e+02°)	(7.41599149284446e+01dB,-1.79999999999968e+02°)
2.23872113856834e+02	(3.63895803663581e+01dB,-1.10434083784622e+02°)	(7.19486000186134e+01dB,1.59595352454178e+02°)	(7.41599149284716e+01dB,-1.79999999999960e+02°)
2.37137370566166e+02	(3.68264008598103e+01dB,-1.11520442523057e+02°)	(7.18002854383757e+01dB,1.59103465577718e+02°)	(7.41599149284895e+01dB,-1.79999999999911e+02°)
2.51188643150958e+02	(3.72565980918772e+01dB,-1.12654610414692e+02°)	(7.16444561696294e+01dB,1.58644022354810e+02°)	(7.41599149284839e+01dB,-1.79999999999974e+02°)
2.66072505979881e+02	(3.76795984149742e+01dB,-1.13836705332288e+02°)	(7.14815237883860e+01dB,1.58222620317713e+02°)	(7.41599149284686e+01dB,1.79999999999971e+02°)
2.81838293126445e+02	(3.80948046010080e+01dB,-1.15066532032381e+02°)	(7.13120167755729e+01dB,1.57844640556346e+02°)	(7.41599149284747e+01dB,-1.79999999999924e+02°)
2.98538261891796e+02	(3.85016003034839e+01dB,-1.16343544382210e+02°)	(7.11365777961811e+01dB,1.57515121536748e+02°)	(7.41599149284831e+01dB,-1.79999999999968e+02°)
3.16227766016838e+02	(3.88993556907269e+01dB,-1.17666809577810e+02°)	(7.09559573193330e+01dB,1.57238634129344e+02°)	(7.41599149284358e+01dB,1.79999999999883e+02°)
3.34965439157828e+02	(3.92874342802878e+01dB,-1.19034975973483e+02°)	(7.07710035892946e+01dB,1.57019163038537e+02°)	(7.41599149284294e+01dB,-1.79999999999996e+02°)
3.54813389233576e+02	(3.96652009512959e+01dB,-1.20446246320769e+02°)	(7.05826491446572e+01dB,1.56859999795859e+02°)	(7.41599149284436e+01dB,1.79999999999827e+02°)
3.75837404288444e+02	(4.00320310465454e+01dB,-1.21898358314208e+02°)	(7.03918942655977e+01dB,1.56763652133441e+02°)	(7.41599149284913e+01dB,-1.79999999999940e+02°)
3.98107170553497e+02	(4.03873204020049e+01dB,-1.23388574332304e+02°)	(7.01997878946493e+01dB,1.56731773913234e+02°)	(7.41599149284460e+01dB,-1.79999999999960e+02°)
4.21696503428582e+02	(4.07304960626633e+01dB,-1.24913682117392e+02°)	(7.00074067137433e+01dB,1.56765118891953e+02°)	(7.41599149284607e+01dB,1.79999999999858e+02°)
4.46683592150963e+02	(4.10610273662783e+01dB,-1.26470007839511e+02°)	(6.98158331608678e+01dB,1.56863520509599e+02°)	(7.41599149284888e+01dB,-1.79999999999978e+02°)
4.73151258961481e+02	(4.13784370083006e+01dB,-1.28053442530386e+02°)	(6.96261332275938e+01dB,1.57025898667916e+02°)	(7.41599149284474e+01dB,1.79999999999956e+02°)
5.01187233627272e+02	(4.16823116501749e+01dB,-1.29659482267268e+02°)	(6.94393348907298e+01dB,1.57250293187241e+02°)	(7.41599149284500e+01dB,1.79999999999895e+02°)
5.30884444230988e+02	(4.19723116073282e+01dB,-1.31283281763899e+02°)	(6.92564079967877e+01dB,1.57533922370372e+02°)	(7.41599149284543e+01dB,1.79999999999869e+02°)
5.62341325190349e+02	(4.22481791586597e+01dB,-1.32919720240008e+02°)	(6.90782463387154e+01dB,1.57873263934851e+02°)	(7.41599149284419e+01dB,1.79999999999997e+02°)
5.95662143529011e+02	(4.25097450598258e+01dB,-1.34563477658371e+02°)	(6.89056525449859e+01dB,1.58264154570554e+02°)	(7.41599149284572e+01dB,1.79999999999940e+02°)
6.30957344480193e+02	(4.27569329176834e+01dB,-1.36209118716238e+02°)	(6.87393262488837e+01dB,1.58701903601504e+02°)	(7.41599149284533e+01dB,-1.79999999999898e+02°)
6.68343917568615e+02	(4.29897611885318e+01dB,-1.37851181429132e+02°)	(6.85798558304551e+01dB,1.59181415729424e+02°)	(7.41599149284604e+01dB,-1.79999999999866e+02°)
7.07945784384138e+02	(4.32083426898034e+01dB,-1.39484266811256e+02°)	(6.84277138370820e+01dB,1.59697317643992e+02°)	(7.41599149284659e+01dB,1.79999999999997e+02°)
7.49894209332456e+02	(4.34128816521768e+01dB,-1.41103126076217e+02°)	(6.82832560041290e+01dB,1.60244083408783e+02°)	(7.41599149284636e+01dB,-1.79999999999917e+02°)
7.94328234724282e+02	(4.36036684738962e+01dB,-1.42702741963912e+02°)	(6.81467236278182e+01dB,1.60816153954081e+02°)	(7.41599149284642e+01dB,-1.79999999999827e+02°)
8.41395141645195e+02	(4.37810724588186e+01dB,-1.44278401223073e+02°)	(6.80182489001054e+01dB,1.61408046682549e+02°)	(7.41599149284558e+01dB,1.79999999999969e+02°)
8.91250938133746e+02	(4.39455329140056e+01dB,-1.45825755895883e+02°)	(6.78978627087632e+01dB,1.62014452054994e+02°)	(7.41599149284567e+01dB,1.79999999999972e+02°)
9.44060876285924e+02	(4.40975490445599e+01dB,-1.47340871793683e+02°)	(6.77855043402241e+01dB,1.62630314990347e+02°)	(7.41599149284548e+01dB,-1.79999999999928e+02°)
1.00000000000000e+03	(4.42376691100326e+01dB,-1.48820263345358e+02°)	(6.76810324988245e+01dB,1.63250899903143e+02°)	(7.41599149284566e+01dB,1.79999999999985e+02°)
1.05925372517729e+03	(4.43664792994062e+01dB,-1.50260914768419e+02°)	(6.75842370708332e+01dB,1.63871839135110e+02°)	(7.41599149284605e+01dB,1.79999999999943e+02°)
1.12201845430196e+03	(4.44845927450594e+01dB,-1.51660288195135e+02°)	(6.74948511086229e+01dB,1.64489165352970e+02°)	(7.41599149285138e+01dB,1.79999999999978e+02°)
1.18850222743702e+03	(4.45926390373611e+01dB,-1.53016319937667e+02°)	(6.74125625811900e+01dB,1.65099329138818e+02°)	(7.41599149284936e+01dB,1.79999999999843e+02°)
1.25892541179417e+03	(4.46912545287313e+01dB,-1.54327406472928e+02°)	(6.73370255226808e+01dB,1.65699203471869e+02°)	(7.41599149285060e+01dB,1.79999999999899e+02°)
1.33352143216332e+03	(4.47810736372810e+01dB,-1.55592381965017e+02°)	(6.72678703018087e+01dB,1.66286077089700e+02°)	(7.41599149284724e+01dB,1.79999999999975e+02°)
1.41253754462275e+03	(4.48627212825315e+01dB,-1.56810489231970e+02°)	(6.72047128244112e+01dB,1.66857638838939e+02°)	(7.41599149284650e+01dB,-1.79999999999997e+02°)
1.49623565609443e+03	(4.49368065147572e+01dB,-1.57981346026818e+02°)	(6.71471625630923e+01dB,1.67411955106171e+02°)	(7.41599149284694e+01dB,1.79999999999974e+02°)
1.58489319246111e+03	(4.50039173388460e+01dB,-1.59104908369411e+02°)	(6.70948293780537e+01dB,1.67947442291886e+02°)	(7.41599149284714e+01dB,1.79999999999922e+02°)
1.67880401812256e+03	(4.50646166851796e+01dB,-1.60181432465577e+02°)	(6.70473291498275e+01dB,1.68462836087220e+02°)	(7.41599149284343e+01dB,-1.79999999999879e+02°)
1.77827941003892e+03	(4.51194394443286e+01dB,-1.61211436512506e+02°)	(6.70042882873288e+01dB,1.68957159066343e+02°)	(7.41599149284609e+01dB,1.79999999999955e+02°)
1.88364908948980e+03	(4.51688904586289e+01dB,-1.62195663438116e+02°)	(6.69653472041610e+01dB,1.69429687842474e+02°)	(7.41599149284353e+01dB,-1.79999999999902e+02°)
1.99526231496888e+03	(4.52134433505160e+01dB,-1.63135045376483e+02°)	(6.69301628740505e+01dB,1.69879920774163e+02°)	(7.41599149284554e+01dB,-1.79999999999956e+02°)
2.11348903983665e+03	(4.52535400629731e+01dB,-1.64030670454692e+02°)	(6.68984105845847e+01dB,1.70307546964405e+02°)	(7.41599149284838e+01dB,1.79999999999992e+02°)
2.23872113856834e+03	(4.52895909896458e+01dB,-1.64883752266993e+02°)	(6.68697850092358e+01dB,1.70712417078330e+02°)	(7.41599149284437e+01dB,-1.79999999999892e+02°)
2.37137370566166e+03	(4.53219755791937e+01dB,-1.65695602243933e+02°)	(6.68440007128882e+01dB,1.71094516320003e+02°)	(7.41599149284775e+01dB,-1.79999999999954e+02°)
2.51188643150958e+03	(4.53510433086325e+01dB,-1.66467604987994e+02°)	(6.68207921976493e+01dB,1.71453939756409e+02°)	(7.41599149284369e+01dB,-1.79999999999964e+02°)
2.66072505979881e+03	(4.53771149323780e+01dB,-1.67201196541675e+02°)	(6.67999135849669e+01dB,1.71790870056115e+02°)	(7.41599149284442e+01dB,-1.79999999999974e+02°)
2.81838293126446e+03	(4.54004839263486e+01dB,-1.67897845475770e+02°)	(6.67811380183072e+01dB,1.72105557618127e+02°)	(7.41599149284548e+01dB,1.79999999999954e+02°)
2.98538261891796e+03	(4.54214180590211e+01dB,-1.68559036631275e+02°)	(6.67642568586132e+01dB,1.72398302999427e+02°)	(7.41599149284601e+01dB,1.79999999999981e+02°)
3.16227766016838e+03	(4.54401610331935e+01dB,-1.69186257313586e+02°)	(6.67490787332299e+01dB,1.72669441504095e+02°)	(7.41599149284623e+01dB,-1.79999999999962e+02°)
3.34965439157828e+03	(4.54569341530586e+01dB,-1.69780985718794e+02°)	(6.67354284882168e+01dB,1.72919329767828e+02°)	(7.41599149284707e+01dB,1.79999999999982e+02°)
3.54813389233576e+03	(4.54719379808285e+01dB,-1.70344681365146e+02°)	(6.67231460842766e+01dB,1.73148334156502e+02°)	(7.41599149285001e+01dB,1.79999999999972e+02°)
3.75837404288444e+03	(4.54853539555188e+01dB,-1.70878777305098e+02°)	(6.67120854680515e+01dB,1.73356820792195e+02°)	(7.41599149284657e+01dB,1.79999999999992e+02°)
3.98107170553498e+03	(4.54973459536089e+01dB,-1.71384673902201e+02°)	(6.67021134431444e+01dB,1.73545147022226e+02°)	(7.41599149284819e+01dB,1.79999999999976e+02°)
4.21696503428583e+03	(4.55080617772236e+01dB,-1.71863733970147e+02°)	(6.66931085590384e+01dB,1.73713654154518e+02°)	(7.41599149284779e+01dB,-1.79999999999989e+02°)
4.46683592150963e+03	(4.55176345603322e+01dB,-1.72317279086992e+02°)	(6.66849600308874e+01dB,1.73862661293263e+02°)	(7.41599149284822e+01dB,1.79999999999995e+02°)
4.73151258961481e+03	(4.55261840873617e+01dB,-1.72746586914613e+02°)	(6.66775666988922e+01dB,1.73992460122008e+02°)	(7.41599149284500e+01dB,-1.79999999999959e+02°)
5.01187233627273e+03	(4.55338180216931e+01dB,-1.73152889370772e+02°)	(6.66708360325299e+01dB,1.74103310495291e+02°)	(7.41599149284965e+01dB,1.79999999999970e+02°)
5.30884444230989e+03	(4.55406330438834e+01dB,-1.73537371518249e+02°)	(6.66646831821429e+01dB,1.74195436714162e+02°)	(7.41599149284910e+01dB,1.79999999999971e+02°)
5.62341325190350e+03	(4.55467159012425e+01dB,-1.73901171051686e+02°)	(6.66590300781849e+01dB,1.74269024374897e+02°)	(7.41599149284335e+01dB,-1.79999999999947e+02°)
5.95662143529011e+03	(4.55521443716979e+01dB,-1.74245378277975e+02°)	(6.66538045767831e+01dB,1.74324217693726e+02°)	(7.41599149284549e+01dB,1.79999999999982e+02°)
6.30957344480194e+03	(4.55569881457942e+01dB,-1.74571036499886e+02°)	(6.66489396488788e+01dB,1.74361117222855e+02°)	(7.41599149284304e+01dB,-1.79999999999968e+02°)
6.68343917568615e+03	(4.55613096312765e+01dB,-1.74879142725232e+02°)	(6.66443726092872e+01dB,1.74379777884808e+02°)	(7.41599149284816e+01dB,1.80000000000000e+02°)
7.07945784384138e+03	(4.55651646850592e+01dB,-1.75170648635089e+02°)	(6.66400443812220e+01dB,1.74380207262809e+02°)	(7.41599149284689e+01dB,-1.79999999999989e+02°)
7.49894209332456e+03	(4.55686032775518e+01dB,-1.75446461754578e+02°)	(6.66358987912688e+01dB,1.74362364094663e+02°)	(7.41599149284688e+01dB,1.79999999999999e+02°)
7.94328234724282e+03	(4.55716700943317e+01dB,-1.75707446778468e+02°)	(6.66318818893935e+01dB,1.74326156926761e+02°)	(7.41599149285038e+01dB,1.79999999999993e+02°)
8.41395141645196e+03	(4.55744050800688e+01dB,-1.75954427011521e+02°)	(6.66279412882473e+01dB,1.74271442892848e+02°)	(7.41599149284378e+01dB,-1.79999999999984e+02°)
8.91250938133746e+03	(4.55768439294476e+01dB,-1.76188185890117e+02°)	(6.66240255157872e+01dB,1.74198026589986e+02°)	(7.41599149284951e+01dB,1.79999999999996e+02°)
9.44060876285924e+03	(4.55790185296128e+01dB,-1.76409468557437e+02°)	(6.66200833750651e+01dB,1.74105659031108e+02°)	(7.41599149284347e+01dB,-1.79999999999981e+02°)
1.00000000000000e+04	(4.55809573584190e+01dB,-1.76618983469404e+02°)	(6.66160633048735e+01dB,1.73994036660415e+02°)	(7.41599149284378e+01dB,-1.79999999999978e+02°)
1.05925372517729e+04	(4.55826858424926e+01dB,-1.76817404012752e+02°)	(6.66119127348318e+01dB,1.73862800424401e+02°)	(7.41599149284852e+01dB,1.79999999999979e+02°)
1.12201845430196e+04	(4.55842266788377e+01dB,-1.77005370120196e+02°)	(6.66075774283574e+01dB,1.73711534897499e+02°)	(7.41599149284605e+01dB,1.79999999999992e+02°)
1.18850222743702e+04	(4.55856001234358e+01dB,-1.77183489870694e+02°)	(6.66030008069101e+01dB,1.73539767468229e+02°)	(7.41599149284681e+01dB,-1.79999999999986e+02°)
1.25892541179417e+04	(4.55868242500194e+01dB,-1.77352341065332e+02°)	(6.65981232487673e+01dB,1.73346967598011e+02°)	(7.41599149284991e+01dB,1.79999999999989e+02°)
1.33352143216333e+04	(4.55879151819308e+01dB,-1.77512472771524e+02°)	(6.65928813555752e+01dB,1.73132546172152e+02°)	(7.41599149284714e+01dB,1.79999999999996e+02°)
1.41253754462276e+04	(4.55888872997272e+01dB,-1.77664406830024e+02°)	(6.65872071798519e+01dB,1.72895854970032e+02°)	(7.41599149284580e+01dB,-1.79999999999996e+02°)
1.49623565609443e+04	(4.55897534269570e+01dB,-1.77808639320719e+02°)	(6.65810274066456e+01dB,1.72636186289337e+02°)	(7.41599149284388e+01dB,1.80000000000000e+02°)
1.58489319246111e+04	(4.55905249963072e+01dB,-1.77945641984441e+02°)	(6.65742624826605e+01dB,1.72352772768926e+02°)	(7.41599149285049e+01dB,1.79999999999991e+02°)
1.67880401812256e+04	(4.55912121981160e+01dB,-1.78075863599052e+02°)	(6.65668256863129e+01dB,1.72044787463975e+02°)	(7.41599149284466e+01dB,-1.79999999999992e+02°)
1.77827941003892e+04	(4.55918241130541e+01dB,-1.78199731308899e+02°)	(6.65586221325401e+01dB,1.71711344238586e+02°)	(7.41599149284570e+01dB,1.79999999999995e+02°)
1.88364908948980e+04	(4.55923688306012e+01dB,-1.78317651907437e+02°)	(6.65495477066669e+01dB,1.71351498552823e+02°)	(7.41599149284516e+01dB,-1.79999999999990e+02°)
1.99526231496888e+04	(4.55928535547837e+01dB,-1.78430013073362e+02°)	(6.65394879224185e+01dB,1.70964248734672e+02°)	(7.41599149284881e+01dB,-1.79999999999998e+02°)
2.11348903983665e+04	(4.55932846984920e+01dB,-1.78537184561070e+02°)	(6.65283167001784e+01dB,1.70548537841562e+02°)	(7.41599149284988e+01dB,1.79999999999991e+02°)
2.23872113856834e+04	(4.55936679675621e+01dB,-1.78639519346601e+02°)	(6.65158950630931e+01dB,1.70103256232142e+02°)	(7.41599149284586e+01dB,-1.79999999999995e+02°)
2.37137370566166e+04	(4.55940084356819e+01dB,-1.78737354730517e+02°)	(6.65020697505212e+01dB,1.69627244985537e+02°)	(7.41599149284894e+01dB,1.79999999999994e+02°)
2.51188643150958e+04	(4.55943106110758e+01dB,-1.78831013399398e+02°)	(6.64866717508407e+01dB,1.69119300322419e+02°)	(7.41599149285020e+01dB,1.79999999999994e+02°)
2.66072505979881e+04	(4.55945784958174e+01dB,-1.78920804447801e+02°)	(6.64695147588802e+01dB,1.68578179199990e+02°)	(7.41599149284488e+01dB,-1.79999999999998e+02°)
2.81838293126446e+04	(4.55948156385295e+01dB,-1.79007024362660e+02°)	(6.64503935672695e+01dB,1.68002606270751e+02°)	(7.41599149284469e+01dB,-1.79999999999997e+02°)
2.98538261891796e+04	(4.55950251811513e+01dB,-1.79089957972197e+02°)	(6.64290824059927e+01dB,1.67391282408530e+02°)	(7.41599149284815e+01dB,1.79999999999998e+02°)
3.16227766016838e+04	(4.55952099003745e+01dB,-1.79169879361498e+02°)	(6.64053332505931e+01dB,1.66742895021577e+02°)	(7.41599149284573e+01dB,-1.79999999999999e+02°)
3.34965439157828e+04	(4.55953722442861e+01dB,-1.79247052756932e+02°)	(6.63788741266390e+01dB,1.66056130376814e+02°)	(7.41599149284906e+01dB,1.79999999999996e+02°)
3.54813389233576e+04	(4.55955143646918e+01dB,-1.79321733381627e+02°)	(6.63494074467184e+01dB,1.65329688164890e+02°)	(7.41599149284727e+01dB,-1.80000000000000e+02°)
3.75837404288444e+04	(4.55956381455413e+01dB,-1.79394168284256e+02°)	(6.63166084259150e+01dB,1.64562298525427e+02°)	(7.41599149284441e+01dB,-1.80000000000000e+02°)
3.98107170553498e+04	(4.55957452278268e+01dB,-1.79464597143333e+02°)	(6.62801236327778e+01dB,1.63752741732759e+02°)	(7.41599149284577e+01dB,-1.79999999999998e+02°)
4.21696503428583e+04	(4.55958370312770e+01dB,-1.79533253049291e+02°)	(6.62395697447313e+01dB,1.62899870706008e+02°)	(7.41599149284614e+01dB,1.79999999999999e+02°)
4.46683592150963e+04	(4.55959147731334e+01dB,-1.79600363266535e+02°)	(6.61945325895541e+01dB,1.62002636451975e+02°)	(7.41599149284997e+01dB,1.79999999999999e+02°)
4.73151258961481e+04	(4.55959794842526e+01dB,-1.79666149977697e+02°)	(6.61445665670622e+01dB,1.61060116466204e+02°)	(7.41599149284843e+01dB,1.80000000000000e+02°)
5.01187233627273e+04	(4.55960320227458e+01dB,-1.79730831012289e+02°)	(6.60891945571573e+01dB,1.60071546012389e+02°)	(7.41599149284348e+01dB,-1.79999999999999e+02°)
5.30884444230989e+04	(4.55960730853360e+01dB,-1.79794620561933e+02°)	(6.60279084303270e+01dB,1.59036352059825e+02°)	(7.41599149284488e+01dB,-1.79999999999999e+02°)
5.62341325190350e+04	(4.55961032165795e+01dB,-1.79857729884338e+02°)	(6.59601702833216e+01dB,1.57954189487321e+02°)	(7.41599149284999e+01dB,-1.80000000000000e+02°)
5.95662143529011e+04	(4.55961228160752e+01dB,-1.79920367998183e+02°)	(6.58854145244779e+01dB,1.56824978960053e+02°)	(7.41599149284724e+01dB,1.80000000000000e+02°)
6.30957344480194e+04	(4.55961321437550e+01dB,-1.79982742371039e+02°)	(6.58030509279415e+01dB,1.55648945657652e+02°)	(7.41599149284861e+01dB,-1.79999999999999e+02°)
6.68343917568615e+04	(4.55961313233256e+01dB,1.79954940397520e+02°)	(6.57124687620015e+01dB,1.54426657784348e+02°)	(7.41599149284600e+01dB,1.80000000000000e+02°)
7.07945784384139e+04	(4.55961203439059e+01dB,1.79892473895507e+02°)	(6.56130420719585e+01dB,1.53159063540940e+02°)	(7.41599149285023e+01dB,-1.79999999999999e+02°)
7.49894209332457e+04	(4.55960990598837e+01dB,1.79829651218676e+02°)	(6.55041361611925e+01dB,1.51847525004115e+02°)	(7.41599149284401e+01dB,1.80000000000000e+02°)
7.94328234724282e+04	(4.55960671889871e+01dB,1.79766264289115e+02°)	(6.53851152645511e+01dB,1.50493847162689e+02°)	(7.41599149284883e+01dB,-1.80000000000000e+02°)
8.41395141645196e+04	(4.55960243085473e+01dB,1.79702103170161e+02°)	(6.52553513464591e+01dB,1.49100300234160e+02°)	(7.41599149284377e+01dB,-1.80000000000000e+02°)
8.91250938133746e+04	(4.55959698499029e+01dB,1.79636955375499e+02°)	(6.51142338845894e+01dB,1.47669633360301e+02°)	(7.41599149284397e+01dB,1.79999999999999e+02°)
9.44060876285924e+04	(4.55959030908716e+01dB,1.79570605170294e+02°)	(6.49611804217074e+01dB,1.46205077878425e+02°)	(7.41599149284991e+01dB,-1.79999999999997e+02°)
1.00000000000000e+05	(4.55958231461919e+01dB,1.79502832862218e+02°)	(6.47956475902035e+01dB,1.44710338621065e+02°)	(7.41599149284302e+01dB,1.79999999999997e+02°)
1.05925372517729e+05	(4.55957289558069e+01dB,1.79433414080193e+02°)	(6.46171422416712e+01dB,1.43189572104373e+02°)	(7.41599149284694e+01dB,1.80000000000000e+02°)
