Freq.	V(vc)/V(vin)	V(vin)/I(CB)	V(vc)/Ic(Q1)
1.00000000000000e+02	(2.98608816705812e+01dB,-9.97226974335823e+01Ḟ)	(7.33793640909316e+01dB,1.69753949318296e+02Ḟ)	(7.41599149284794e+01dB,1.79999999999977e+02Ḟ)
1.12201845430196e+02	(3.08308519491728e+01dB,-1.00800786199374e+02Ḟ)	(7.33056608669289e+01dB,1.69072595728860e+02Ḟ)	(7.41599149284885e+01dB,-1.79999999999944e+02Ḟ)
1.25892541179417e+02	(3.17935229030121e+01dB,-1.02009993178136e+02Ḟ)	(7.32163770005158e+01dB,1.68309208786105e+02Ḟ)	(7.41599149284551e+01dB,1.79999999999986e+02Ḟ)
1.41253754462275e+02	(3.27471242276670e+01dB,-1.03361620872441e+02Ḟ)	(7.31088784404467e+01dB,1.67474462940219e+02Ḟ)	(7.41599149285022e+01dB,-1.79999999999920e+02Ḟ)
1.58489319246111e+02	(3.36895209464608e+01dB,-1.04867090874707e+02Ḟ)	(7.29805050822366e+01dB,1.66583520319483e+02Ḟ)	(7.41599149284381e+01dB,-1.80000000000000e+02Ḟ)
1.77827941003892e+02	(3.46181608554839e+01dB,-1.06537502699904e+02Ḟ)	(7.28287627073240e+01dB,1.65656801379916e+02Ḟ)	(7.41599149284510e+01dB,1.79999999999966e+02Ḟ)
1.99526231496888e+02	(3.55300284203586e+01dB,-1.08383032334818e+02Ḟ)	(7.26515828596677e+01dB,1.64720412359196e+02Ḟ)	(7.41599149284969e+01dB,1.79999999999969e+02Ḟ)
2.23872113856834e+02	(3.64216136832075e+01dB,-1.10412150635403e+02Ḟ)	(7.24476383010530e+01dB,1.63805989543817e+02Ḟ)	(7.41599149284790e+01dB,-1.79999999999881e+02Ḟ)
2.51188643150958e+02	(3.72889078146953e+01dB,-1.12630658715657e+02Ḟ)	(7.22166817509068e+01dB,1.62949730051458e+02Ḟ)	(7.41599149284486e+01dB,-1.79999999999997e+02Ḟ)
2.81838293126445e+02	(3.81274395737213e+01dB,-1.15040567894962e+02Ḟ)	(7.19598544744158e+01dB,1.62190465862020e+02Ḟ)	(7.41599149284387e+01dB,1.79999999999955e+02Ḟ)
3.16227766016838e+02	(3.89323678940107e+01dB,-1.17638897272769e+02Ḟ)	(7.16798964870893e+01dB,1.61566812316187e+02Ḟ)	(7.41599149284500e+01dB,1.79999999999947e+02Ḟ)
3.54813389233575e+02	(3.96986434240081e+01dB,-1.20416519485647e+02Ḟ)	(7.13811904402707e+01dB,1.61113658913211e+02Ḟ)	(7.41599149284505e+01dB,1.79999999999800e+02Ḟ)
3.98107170553497e+02	(4.04212444003774e+01dB,-1.23357243537412e+02Ḟ)	(7.10695923986282e+01dB,1.60858503885861e+02Ḟ)	(7.41599149284851e+01dB,-1.79999999999931e+02Ḟ)
4.46683592150963e+02	(4.10954789324010e+01dB,-1.26437362077682e+02Ḟ)	(7.07520432734813e+01dB,1.60818278339421e+02Ḟ)	(7.41599149284476e+01dB,1.79999999999860e+02Ḟ)
5.01187233627272e+02	(4.17173279583576e+01dB,-1.29625882353665e+02Ḟ)	(7.04360046417034e+01dB,1.60997290069245e+02Ḟ)	(7.41599149284942e+01dB,-1.79999999999948e+02Ḟ)
5.62341325190348e+02	(4.22837851734899e+01dB,-1.32885583301840e+02Ḟ)	(7.01288065657694e+01dB,1.61386722742823e+02Ḟ)	(7.41599149284796e+01dB,1.79999999999931e+02Ḟ)
6.30957344480193e+02	(4.27931389543387e+01dB,-1.36174894767183e+02Ḟ)	(6.98370180096219e+01dB,1.61965800192477e+02Ḟ)	(7.41599149284478e+01dB,-1.79999999999940e+02Ḟ)
7.07945784384137e+02	(4.32451433608640e+01dB,-1.39450410334234e+02Ḟ)	(6.95659445004736e+01dB,1.62704365747477e+02Ḟ)	(7.41599149284429e+01dB,1.79999999999983e+02Ḟ)
7.94328234724280e+02	(4.36410432444174e+01dB,-1.42669682767016e+02Ḟ)	(6.93193249056213e+01dB,1.63566343550175e+02Ḟ)	(7.41599149284824e+01dB,-1.79999999999972e+02Ḟ)
8.91250938133744e+02	(4.39834481472065e+01dB,-1.45793873708152e+02Ḟ)	(6.90992509138461e+01dB,1.64513423743148e+02Ḟ)	(7.41599149284635e+01dB,-1.79999999999944e+02Ḟ)
9.99999999999999e+02	(4.42760811877608e+01dB,-1.48789869595072e+02Ḟ)	(6.89062849401074e+01dB,1.65508367409531e+02Ḟ)	(7.41599149284554e+01dB,1.79999999999976e+02Ḟ)
1.12201845430196e+03	(4.45234516872705e+01dB,-1.51631616593394e+02Ḟ)	(6.87397186324691e+01dB,1.66517517416253e+02Ḟ)	(7.41599149284265e+01dB,1.79999999999998e+02Ḟ)
1.25892541179417e+03	(4.47305075451732e+01dB,-1.54300612104903e+02Ḟ)	(6.85979016482058e+01dB,1.67512346002240e+02Ḟ)	(7.41599149284754e+01dB,-1.79999999999917e+02Ḟ)
1.41253754462275e+03	(4.49023158289580e+01dB,-1.56785654434787e+02Ḟ)	(6.84785770676879e+01dB,1.68470087486218e+02Ḟ)	(7.41599149284540e+01dB,-1.79999999999999e+02Ḟ)
1.58489319246111e+03	(4.50438034450194e+01dB,-1.59082053015640e+02Ḟ)	(6.83791782113325e+01dB,1.69373644780644e+02Ḟ)	(7.41599149284333e+01dB,-1.79999999999951e+02Ḟ)
1.77827941003892e+03	(4.51595712626785e+01dB,-1.61190530352066e+02Ḟ)	(6.82970630351290e+01dB,1.70211011867906e+02Ḟ)	(7.41599149284536e+01dB,-1.79999999999982e+02Ḟ)
1.99526231496888e+03	(4.52537800027806e+01dB,-1.63116020560406e+02Ḟ)	(6.82296803642315e+01dB,1.70974440719449e+02Ḟ)	(7.41599149284339e+01dB,-1.79999999999927e+02Ḟ)
2.23872113856833e+03	(4.53300968555342e+01dB,-1.64866514805303e+02Ḟ)	(6.81746741765996e+01dB,1.71659530803093e+02Ḟ)	(7.41599149284438e+01dB,-1.79999999999913e+02Ḟ)
2.51188643150957e+03	(4.53916879170853e+01dB,-1.66452044481425e+02Ḟ)	(6.81299380288983e+01dB,1.72264359087035e+02Ḟ)	(7.41599149284810e+01dB,1.79999999999926e+02Ḟ)
2.81838293126445e+03	(4.54412415949957e+01dB,-1.67883842909046e+02Ḟ)	(6.80936330722785e+01dB,1.72788715061272e+02Ḟ)	(7.41599149284553e+01dB,1.79999999999969e+02Ḟ)
3.16227766016837e+03	(4.54810103721201e+01dB,-1.69173690987311e+02Ḟ)	(6.80641817921048e+01dB,1.73233465759163e+02Ḟ)	(7.41599149284971e+01dB,1.79999999999990e+02Ḟ)
3.54813389233575e+03	(4.55128613445221e+01dB,-1.70333431198104e+02Ḟ)	(6.80402471352901e+01dB,1.73600050521499e+02Ḟ)	(7.41599149284846e+01dB,1.79999999999989e+02Ḟ)
3.98107170553496e+03	(4.55383288963949e+01dB,-1.71374624394727e+02Ḟ)	(6.80207040369946e+01dB,1.73890091575759e+02Ḟ)	(7.41599149284560e+01dB,-1.79999999999976e+02Ḟ)
4.46683592150962e+03	(4.55586653281907e+01dB,-1.72308321235906e+02Ḟ)	(6.80046080277411e+01dB,1.74105100864806e+02Ḟ)	(7.41599149284486e+01dB,1.79999999999990e+02Ḟ)
5.01187233627271e+03	(4.55748870972529e+01dB,-1.73144921795319e+02Ḟ)	(6.79911637723607e+01dB,1.74246262819385e+02Ḟ)	(7.41599149284608e+01dB,1.79999999999990e+02Ḟ)
5.62341325190348e+03	(4.55878156080244e+01dB,-1.73894100546735e+02Ḟ)	(6.79796950625267e+01dB,1.74314274622041e+02Ḟ)	(7.41599149284735e+01dB,1.79999999999984e+02Ḟ)
6.30957344480191e+03	(4.55981123111587e+01dB,-1.74564778188210e+02Ḟ)	(6.79696168735561e+01dB,1.74309228464406e+02Ḟ)	(7.41599149284422e+01dB,-1.79999999999984e+02Ḟ)
7.07945784384136e+03	(4.56063083576163e+01dB,-1.75165125850531e+02Ḟ)	(6.79604095009849e+01dB,1.74230523497052e+02Ḟ)	(7.41599149285000e+01dB,1.79999999999967e+02Ḟ)
7.94328234724279e+03	(4.56128293097998e+01dB,-1.75702590778228e+02Ḟ)	(6.79515944185282e+01dB,1.74076798190757e+02Ḟ)	(7.41599149284776e+01dB,1.79999999999995e+02Ḟ)
8.91250938133743e+03	(4.56180155184007e+01dB,-1.76183935467672e+02Ḟ)	(6.79427112706382e+01dB,1.73845876518147e+02Ḟ)	(7.41599149285042e+01dB,1.79999999999973e+02Ḟ)
9.99999999999997e+03	(4.56221387895156e+01dB,-1.76615284518953e+02Ḟ)	(6.79332952745820e+01dB,1.73534723732204e+02Ḟ)	(7.41599149284937e+01dB,1.79999999999988e+02Ḟ)
1.12201845430196e+04	(4.56254159316536e+01dB,-1.77002175188112e+02Ḟ)	(6.79228542221814e+01dB,1.73139409652072e+02Ḟ)	(7.41599149284361e+01dB,-1.79999999999993e+02Ḟ)
1.25892541179416e+04	(4.56280197122997e+01dB,-1.77349608912780e+02Ḟ)	(6.79108442185295e+01dB,1.72655079399236e+02Ḟ)	(7.41599149284973e+01dB,1.79999999999986e+02Ḟ)
1.41253754462275e+04	(4.56300876846004e+01dB,-1.77662102022761e+02Ḟ)	(6.78966432667576e+01dB,1.72075933611872e+02Ḟ)	(7.41599149284402e+01dB,-1.79999999999995e+02Ḟ)
1.58489319246111e+04	(4.56317292757008e+01dB,-1.77943734520124e+02Ḟ)	(6.78795218091779e+01dB,1.71395222460322e+02Ḟ)	(7.41599149284310e+01dB,-1.79999999999987e+02Ḟ)
1.77827941003892e+04	(4.56330314641774e+01dB,-1.78198196288257e+02Ḟ)	(6.78586093852073e+01dB,1.70605260447539e+02Ḟ)	(7.41599149284352e+01dB,-1.79999999999988e+02Ḟ)
1.99526231496887e+04	(4.56340633170903e+01dB,-1.78428830418991e+02Ḟ)	(6.78328567005558e+01dB,1.69697472130167e+02Ḟ)	(7.41599149284469e+01dB,-1.79999999999994e+02Ḟ)
2.23872113856833e+04	(4.56348796080657e+01dB,-1.78638673571428e+02Ḟ)	(6.78009926761067e+01dB,1.68662482607026e+02Ḟ)	(7.41599149284308e+01dB,-1.79999999999991e+02Ḟ)
2.51188643150957e+04	(4.56355236962782e+01dB,-1.78830493425869e+02Ḟ)	(6.77614765374052e+01dB,1.67490270819310e+02Ḟ)	(7.41599149284419e+01dB,-1.79999999999995e+02Ḟ)
2.81838293126444e+04	(4.56360298115314e+01dB,-1.79006823393193e+02Ḟ)	(6.77124458199117e+01dB,1.66170408082717e+02Ḟ)	(7.41599149284763e+01dB,-1.79999999999998e+02Ḟ)
3.16227766016837e+04	(4.56364248619945e+01dB,-1.79169994800549e+02Ḟ)	(6.76516624209473e+01dB,1.64692408104274e+02Ḟ)	(7.41599149284921e+01dB,1.79999999999999e+02Ḟ)
3.54813389233574e+04	(4.56367298576123e+01dB,-1.79322166809805e+02Ḟ)	(6.75764606392863e+01dB,1.63046216693740e+02Ḟ)	(7.41599149284566e+01dB,1.80000000000000e+02Ḟ)
3.98107170553496e+04	(4.56369610229412e+01dB,-1.79465354344237e+02Ḟ)	(6.74837035613203e+01dB,1.61222867295796e+02Ḟ)	(7.41599149285047e+01dB,1.79999999999998e+02Ḟ)
4.46683592150961e+04	(4.56371306573777e+01dB,-1.79601454307386e+02Ḟ)	(6.73697570812938e+01dB,1.59215319280993e+02Ḟ)	(7.41599149284546e+01dB,-1.79999999999999e+02Ḟ)
5.01187233627270e+04	(4.56372477877739e+01dB,-1.79732270379873e+02Ḟ)	(6.72304938981031e+01dB,1.57019475954915e+02Ḟ)	(7.41599149284899e+01dB,1.79999999999999e+02Ḟ)
5.62341325190347e+04	(4.56373186476832e+01dB,-1.79859536678359e+02Ḟ)	(6.70613421894068e+01dB,1.54635345185676e+02Ḟ)	(7.41599149284674e+01dB,-1.80000000000000e+02Ḟ)
6.30957344480191e+04	(4.56373470084429e+01dB,-1.79984940557582e+02Ḟ)	(6.68573939760474e+01dB,1.52068256598878e+02Ḟ)	(7.41599149284919e+01dB,-1.79999999999999e+02Ḟ)
7.07945784384135e+04	(4.56373343795341e+01dB,1.79889855167045e+02Ḟ)	(6.66135847136902e+01dB,1.49329990211431e+02Ḟ)	(7.41599149284877e+01dB,-1.79999999999999e+02Ḟ)
7.94328234724278e+04	(4.56372800887879e+01dB,1.79763190301536e+02Ḟ)	(6.63249467959696e+01dB,1.46439615623987e+02Ḟ)	(7.41599149284946e+01dB,-1.79999999999999e+02Ḟ)
8.91250938133742e+04	(4.56371812466686e+01dB,1.79633385386956e+02Ḟ)	(6.59869250260117e+01dB,1.43423811227648e+02Ḟ)	(7.41599149284493e+01dB,-1.80000000000000e+02Ḟ)
9.99999999999995e+04	(4.56370325927505e+01dB,1.79498719571385e+02Ḟ)	(6.55957237452611e+01dB,1.40316456203902e+02Ḟ)	(7.41599149284322e+01dB,1.79999999999996e+02Ḟ)
1.12201845430196e+05	(4.56368262162879e+01dB,1.79357407965528e+02Ḟ)	(6.51486382952483e+01dB,1.37157382838522e+02Ḟ)	(7.41599149284371e+01dB,1.79999999999997e+02Ḟ)
1.25892541179416e+05	(4.56365511361511e+01dB,1.79207578204375e+02Ḟ)	(6.46443149363288e+01dB,1.33990336637532e+02Ḟ)	(7.41599149284747e+01dB,-1.79999999999998e+02Ḟ)
1.41253754462275e+05	(4.56361927180179e+01dB,1.79047245933458e+02Ḟ)	(6.40828892700177e+01dB,1.30860377090235e+02Ḟ)	(7.41599149284583e+01dB,-1.79999999999999e+02Ḟ)
1.58489319246111e+05	(4.56357318982126e+01dB,1.78874288934199e+02Ḟ)	(6.34659746639113e+01dB,1.27811098912166e+02Ḟ)	(7.41599149284568e+01dB,1.79999999999998e+02Ḟ)
1.77827941003891e+05	(4.56351441735389e+01dB,1.78686419599772e+02Ḟ)	(6.27965033355003e+01dB,1.24882103578003e+02Ḟ)	(7.41599149284860e+01dB,-1.80000000000000e+02Ḟ)
1.99526231496887e+05	(4.56343983043977e+01dB,1.78481155472451e+02Ḟ)	(6.20784529995489e+01dB,1.22107082750890e+02Ḟ)	(7.41599149284616e+01dB,1.79999999999999e+02Ḟ)
2.23872113856833e+05	(4.56334546638475e+01dB,1.78255787558228e+02Ḟ)	(6.13165111693648e+01dB,1.19512717580637e+02Ḟ)	(7.41599149284314e+01dB,1.79999999999991e+02Ḟ)
2.51188643150957e+05	(4.56322631474119e+01dB,1.78007346148063e+02Ḟ)	(6.05157325778215e+01dB,1.17118412614593e+02Ḟ)	(7.41599149285034e+01dB,-1.79999999999991e+02Ḟ)
2.81838293126444e+05	(4.56307605366329e+01dB,1.77732563902687e+02Ḟ)	(5.96812348113345e+01dB,1.14936731726478e+02Ḟ)	(7.41599149284501e+01dB,1.79999999999995e+02Ḟ)
3.16227766016836e+05	(4.56288671827798e+01dB,1.77427836006719e+02Ḟ)	(5.88179595874298e+01dB,1.12974320528327e+02Ḟ)	(7.41599149284708e+01dB,1.79999999999991e+02Ḟ)
3.54813389233574e+05	(4.56264828448647e+01dB,1.77089177278211e+02Ḟ)	(5.79305091005577e+01dB,1.11233086478137e+02Ḟ)	(7.41599149284521e+01dB,1.79999999999990e+02Ḟ)
3.98107170553495e+05	(4.56234814772936e+01dB,1.76712176245822e+02Ḟ)	(5.70230531307053e+01dB,1.09711443433224e+02Ḟ)	(7.41599149284570e+01dB,-1.79999999999999e+02Ḟ)
4.46683592150961e+05	(4.56197047163167e+01dB,1.76291946397405e+02Ḟ)	(5.60992947327739e+01dB,1.08405484816176e+02Ḟ)	(7.41599149285034e+01dB,-1.79999999999992e+02Ḟ)
5.01187233627269e+05	(4.56149537604904e+01dB,1.75823075087591e+02Ḟ)	(5.51624796227680e+01dB,1.07310007384637e+02Ḟ)	(7.41599149284874e+01dB,-1.79999999999977e+02Ḟ)
5.62341325190346e+05	(4.56089792788461e+01dB,1.75299571004144e+02Ḟ)	(5.42154351826761e+01dB,1.06419353893459e+02Ḟ)	(7.41599149284321e+01dB,1.79999999999976e+02Ḟ)
6.30957344480190e+05	(4.56014689129002e+01dB,1.74714811681117e+02Ḟ)	(5.32606276121162e+01dB,1.05728074010500e+02Ḟ)	(7.41599149284758e+01dB,1.79999999999993e+02Ḟ)
7.07945784384134e+05	(4.55920318687352e+01dB,1.74061493372744e+02Ḟ)	(5.23002288916149e+01dB,1.05231420035264e+02Ḟ)	(7.41599149284596e+01dB,-1.80000000000000e+02Ḟ)
7.94328234724277e+05	(4.55801800304373e+01dB,1.73331586742351e+02Ḟ)	(5.13361881382303e+01dB,1.04925700660400e+02Ḟ)	(7.41599149284886e+01dB,-1.79999999999983e+02Ḟ)
8.91250938133740e+05	(4.55653049791958e+01dB,1.72516303366338e+02Ḟ)	(5.03703042896503e+01dB,1.04808515756665e+02Ḟ)	(7.41599149284855e+01dB,-1.79999999999970e+02Ḟ)
9.99999999999994e+05	(4.55466502948907e+01dB,1.71606080103782e+02Ḟ)	(4.94042987561272e+01dB,1.04878890777681e+02Ḟ)	(7.41599149284769e+01dB,-1.79999999999964e+02Ḟ)
1.12201845430196e+06	(4.55232785829912e+01dB,1.70590591029207e+02Ḟ)	(4.84398877714891e+01dB,1.05137322819167e+02Ḟ)	(7.41599149284335e+01dB,1.79999999999960e+02Ḟ)
1.25892541179416e+06	(4.54940328599656e+01dB,1.69458799921572e+02Ḟ)	(4.74788547116471e+01dB,1.05585742792341e+02Ḟ)	(7.41599149285002e+01dB,-1.79999999999901e+02Ḟ)
1.41253754462275e+06	(4.54574923174893e+01dB,1.68199070199607e+02Ḟ)	(4.65231226851235e+01dB,1.06227390301373e+02Ḟ)	(7.41599149284393e+01dB,1.79999999999950e+02Ḟ)
1.58489319246110e+06	(4.54119231656867e+01dB,1.66799353447623e+02Ḟ)	(4.55748272317097e+01dB,1.07066590163647e+02Ḟ)	(7.41599149284560e+01dB,-1.79999999999992e+02Ḟ)
1.77827941003891e+06	(4.53552263443999e+01dB,1.65247481695179e+02Ḟ)	(4.46363879560079e+01dB,1.08108412747536e+02Ḟ)	(7.41599149284796e+01dB,-1.79999999999952e+02Ḟ)
1.99526231496887e+06	(4.52848855073635e+01dB,1.63531591260346e+02Ḟ)	(4.37105763073431e+01dB,1.09358195519047e+02Ḟ)	(7.41599149284983e+01dB,-1.79999999999864e+02Ḟ)
2.23872113856832e+06	(4.51979209057412e+01dB,1.61640705336044e+02Ḟ)	(4.28005744502576e+01dB,1.10820902194656e+02Ḟ)	(7.41599149284598e+01dB,-1.79999999999982e+02Ḟ)
2.51188643150956e+06	(4.50908575845742e+01dB,1.59565495784012e+02Ḟ)	(4.19100173201165e+01dB,1.12500301415225e+02Ḟ)	(7.41599149284427e+01dB,1.79999999999892e+02Ḟ)
2.81838293126443e+06	(4.49597193759762e+01dB,1.57299228231642e+02Ḟ)	(4.10430068149127e+01dB,1.14397962343835e+02Ḟ)	(7.41599149284781e+01dB,-1.79999999999938e+02Ḟ)
3.16227766016836e+06	(4.48000628491156e+01dB,1.54838864966961e+02Ḟ)	(4.02040843291478e+01dB,1.16512093564484e+02Ḟ)	(7.41599149284826e+01dB,-1.79999999999986e+02Ḟ)
3.54813389233573e+06	(4.46070664670589e+01dB,1.52186255450066e+02Ḟ)	(3.93981466801764e+01dB,1.18836295886865e+02Ḟ)	(7.41599149284894e+01dB,1.79999999999984e+02Ḟ)
3.98107170553494e+06	(4.43756880447039e+01dB,1.49349287235354e+02Ḟ)	(3.86302925749972e+01dB,1.21358356374760e+02Ḟ)	(7.41599149284609e+01dB,-1.79999999999934e+02Ḟ)
4.46683592150960e+06	(4.41008964775685e+01dB,1.46342811328661e+02Ḟ)	(3.79055938389760e+01dB,1.24059269469985e+02Ḟ)	(7.41599149284696e+01dB,-1.79999999999940e+02Ḟ)
5.01187233627269e+06	(4.37779707301689e+01dB,1.43189115670833e+02Ḟ)	(3.72287985634867e+01dB,1.26912711265577e+02Ḟ)	(7.41599149284639e+01dB,1.79999999999926e+02Ḟ)
5.62341325190345e+06	(4.34028414238769e+01dB,1.39917725199972e+02Ḟ)	(3.66039909404679e+01dB,1.29885188130979e+02Ḟ)	(7.41599149284824e+01dB,1.79999999999989e+02Ḟ)
6.30957344480189e+06	(4.29724322388591e+01dB,1.36564379460272e+02Ḟ)	(3.60342506397361e+01dB,1.32937008300596e+02Ḟ)	(7.41599149284585e+01dB,1.79999999999935e+02Ḟ)
7.07945784384133e+06	(4.24849464855488e+01dB,1.33169181723191e+02Ḟ)	(3.55213664140981e+01dB,1.36024082013424e+02Ḟ)	(7.41599149285056e+01dB,-1.79999999999992e+02Ḟ)
7.94328234724276e+06	(4.19400453659612e+01dB,1.29774097330287e+02Ḟ)	(3.50656574206685e+01dB,1.39100372023643e+02Ḟ)	(7.41599149284666e+01dB,-1.79999999999894e+02Ḟ)
8.91250938133739e+06	(4.13388815235334e+01dB,1.26420144531576e+02Ḟ)	(3.46659386381557e+01dB,1.42120650736024e+02Ḟ)	(7.41599149284446e+01dB,-1.79999999999886e+02Ḟ)
9.99999999999993e+06	(4.06839806914720e+01dB,1.23144704600039e+02Ḟ)	(3.43196375187961e+01dB,1.45043136740084e+02Ḟ)	(7.41599149284490e+01dB,-1.79999999999888e+02Ḟ)
1.12201845430195e+07	(3.99789959565951e+01dB,1.19979344431630e+02Ḟ)	(3.40230372718359e+01dB,1.47831617117961e+02Ḟ)	(7.41599149284846e+01dB,1.79999999999972e+02Ḟ)
1.25892541179416e+07	(3.92283824540408e+01dB,1.16948408457879e+02Ḟ)	(3.37715988417394e+01dB,1.50456798361834e+02Ḟ)	(7.41599149284647e+01dB,-1.79999999999975e+02Ḟ)
1.41253754462274e+07	(3.84370484798611e+01dB,1.14068452605833e+02Ḟ)	(3.35603054307556e+01dB,1.52896812935734e+02Ḟ)	(7.41599149284832e+01dB,1.79999999999944e+02Ḟ)
1.58489319246110e+07	(3.76100321797473e+01dB,1.11348426359733e+02Ḟ)	(3.33839801972358e+01dB,1.55136975362395e+02Ḟ)	(7.41599149284807e+01dB,1.79999999999907e+02Ḟ)
1.77827941003891e+07	(3.67522366810737e+01dB,1.08790403989100e+02Ḟ)	(3.32375439986565e+01dB,1.57168986955791e+02Ḟ)	(7.41599149284563e+01dB,1.79999999999971e+02Ḟ)
1.99526231496886e+07	(3.58682379619800e+01dB,1.06390633402353e+02Ḟ)	(3.31161985614083e+01dB,1.58989821281588e+02Ḟ)	(7.41599149284426e+01dB,-1.79999999999973e+02Ḟ)
2.23872113856832e+07	(3.49621643834147e+01dB,1.04140694940027e+02Ḟ)	(3.30155357604872e+01dB,1.60600499086597e+02Ḟ)	(7.41599149284903e+01dB,1.79999999999909e+02Ḟ)
2.51188643150956e+07	(3.40376370997020e+01dB,1.02028616114683e+02Ḟ)	(3.29315833332966e+01dB,1.62004908468032e+02Ḟ)	(7.41599149285023e+01dB,1.79999999999944e+02Ḟ)
2.81838293126443e+07	(3.30977563799747e+01dB,1.00039848022760e+02Ḟ)	(3.28608014668946e+01dB,1.63208767336398e+02Ḟ)	(7.41599149284584e+01dB,-1.79999999999995e+02Ḟ)
3.16227766016835e+07	(3.21451187213646e+01dB,9.81580600977856e+01Ḟ)	(3.28000447954537e+01dB,1.64218775654650e+02Ḟ)	(7.41599149284740e+01dB,1.79999999999997e+02Ḟ)
3.54813389233572e+07	(3.11818517493460e+01dB,9.63657462455509e+01Ḟ)	(3.27465022052177e+01dB,1.65041970392732e+02Ḟ)	(7.41599149284568e+01dB,-1.79999999999994e+02Ḟ)
3.98107170553494e+07	(3.02096568604893e+01dB,9.46446574636675e+01Ḟ)	(3.26976239199366e+01dB,1.65685276470584e+02Ḟ)	(7.41599149284451e+01dB,-1.79999999999991e+02Ḟ)
4.46683592150959e+07	(2.92298524734670e+01dB,9.29760869338656e+01Ḟ)	(3.26510425665808e+01dB,1.66155239110339e+02Ḟ)	(7.41599149284371e+01dB,-1.79999999999997e+02Ḟ)
5.01187233627268e+07	(2.82434131800334e+01dB,9.13410370488906e+01Ḟ)	(3.26044927995210e+01dB,1.66457923205976e+02Ḟ)	(7.41599149284711e+01dB,-1.79999999999998e+02Ḟ)
5.62341325190344e+07	(2.72510019037467e+01dB,8.97202971475748e+01Ḟ)	(3.25557328021169e+01dB,1.66598970156681e+02Ḟ)	(7.41599149285078e+01dB,-1.79999999999984e+02Ḟ)
6.30957344480188e+07	(2.62529934266189e+01dB,8.80944582545382e+01Ḟ)	(3.25024706534956e+01dB,1.66583809324967e+02Ḟ)	(7.41599149284436e+01dB,1.79999999999971e+02Ḟ)
7.07945784384132e+07	(2.52494884538810e+01dB,8.64438883974316e+01Ḟ)	(3.24422991406656e+01dB,1.66418027350509e+02Ḟ)	(7.41599149284459e+01dB,1.79999999999981e+02Ḟ)
7.94328234724274e+07	(2.42403178967947e+01dB,8.47486900120978e+01Ḟ)	(3.23726440782422e+01dB,1.66107901633521e+02Ḟ)	(7.41599149284701e+01dB,1.79999999999980e+02Ḟ)
8.91250938133737e+07	(2.32250374031531e+01dB,8.29886600168496e+01Ḟ)	(3.22907334436638e+01dB,1.65661101331943e+02Ḟ)	(7.41599149284323e+01dB,1.79999999999967e+02Ḟ)
1.00000000000000e+08	(2.22029124887340e+01dB,8.11432735200773e+01Ḟ)	(3.21935973498516e+01dB,1.65087546880624e+02Ḟ)	(7.41599149284885e+01dB,-1.79999999999988e+02Ḟ)
